!Created with skrf (http://scikit-rf.org).
# GHz S RI R 50.0 
!freq ReS11 ImS11
1.0 0.47526309756019536 0.090411108722944
1.0225 0.4796608789849385 0.08247954785702163
1.045 0.48363937079987784 0.07436426368829105
1.0675 0.4871940105574351 0.06608439686264468
1.09 0.4903207123537628 0.05765886585220248
1.1125 0.49301582385053055 0.049106414046209135
1.135 0.4952760943960814 0.040445659385372756
1.1575 0.49709865395069747 0.031695145039630515
1.18 0.4984810023612204 0.0228733897518541
1.2025 0.49942100839541426 0.013998936605039711
1.225 0.4999169178364917 0.005090399114336933
1.2475 0.49996736985297574 -0.0038334963057393904
1.27 0.49957142079791167 -0.01275387229775897
1.2925 0.49872857455342917 -0.021651667590859944
1.315 0.49743881852049293 -0.030507609607353724
1.3375 0.4957026643578669 -0.039302193012031195
1.36 0.4935211925971428 -0.04801566444030957
1.3825 0.4908961003003131 -0.056628013523037264
1.405 0.4878297509808616 -0.0651189702203537
1.4275 0.4843252260766894 -0.07346800838612705
1.45 0.48038637734127193 -0.08165435540961216
1.4725 0.47601787960604597 -0.08965700772346162
1.495 0.4712252834597569 -0.09745475192833708
1.5175 0.4660150674867524 -0.10502619126528714
1.54 0.46039468980306836 -0.11234977716881742
1.5625 0.45437263872331235 -0.11940384565701515
1.585 0.44795848247909054 -0.1261666583607415
1.6075 0.441162917986804 -0.13261644806182876
1.63 0.4339978187243961 -0.13873146869985845
1.6525 0.42647628181790936 -0.14449004991703257
1.675 0.4186126744541293 -0.1498706563384079
1.6975 0.41042267971955654 -0.15485195192659695
1.72 0.4019233419131154 -0.159412869900727
1.7425 0.39313311128544004 -0.16353268886217665
1.765 0.384071888017284 -0.16719111591588456
1.7875 0.37476106506098444 -0.17036837770569488
1.81 0.3652235692312145 -0.17304532038363163
1.8325 0.3554838996462025 -0.1752035195932895
1.855 0.3455681622927681 -0.1768254015530395
1.8775 0.335504099125945 -0.17789437626158291
1.9 0.32532110972830636 -0.1783949837032467
1.9225 0.3150502631610463 -0.1783130536914113
1.945 0.30472429725793654 -0.1776358796462221
1.9675 0.2943776022677508 -0.17635240615146472
1.99 0.2840461854670164 -0.1744534295741647
2.0125 0.2737676131717287 -0.1719318103639797
2.035 0.2635809265037285 -0.16878269488959372
2.0575 0.2535265273440856 -0.16500374383563088
2.08 0.24364603115892117 -0.16059536330384835
2.1025 0.23398208383487867 -0.15556093387253891
2.125 0.22457814032717374 -0.1499070320118959
2.1475 0.21547820380855398 -0.14364363748076603
2.17 0.20672652510661962 -0.13678431969643945
2.1925 0.19836726351006412 -0.12934639563036218
2.215 0.19044411147682788 -0.12135105159362417
2.2375 0.1829998873388172 -0.11282342138567161
2.26 0.17607610170401447 -0.1037926137265628
2.2825 0.16971250483022235 -0.09429168270113333
2.305 0.16394662369902202 -0.08435753611778773
2.3275 0.15881329876328 -0.07403077820839683
2.35 0.15434423128799654 -0.06335548492819901
2.3725 0.15056755277230108 -0.052378912190923485
2.395 0.14750742806530595 -0.041151139607794596
2.4175 0.1451837034275978 -0.02972465458484097
2.44 0.14361160992788213 -0.018153883854362358
2.4625 0.1428015312158574 -0.006494681552708613
2.485 0.14275884292456864 0.005196215308562045
2.5075 0.14348382880513105 0.0168617518001636
2.53 0.1449716762862334 0.028445127437196176
2.5525 0.14721255160150057 0.03989036261294494
2.575 0.15019175207105886 0.05114284601885823
2.5975 0.1538899306914855 0.06214985075355543
2.62 0.1582833860035872 0.07286100810426945
2.6425 0.16334440837504277 0.0832287296788938
2.665 0.1690416724347924 0.09320857057518347
2.6875 0.17534066447844965 0.10275952848047781
2.71 0.18220413324760207 0.11184427587984297
2.7325 0.1895925525584416 0.12042932479523193
2.755 0.19746458477678813 0.1284851255766989
2.7775 0.205777535044716 0.13598610312984877
2.8 0.21448778737988283 0.14291063552421662
2.8225 0.2235512152042089 0.14924098114170953
2.845 0.23292356042311874 0.1549631613731099
2.8675 0.24256077678311633 0.1600668063567805
2.89 0.25241933480551176 0.16454497139909474
2.9125 0.26245648706144487 0.16839393155800836
2.935 0.2726304938661524 0.17161296145752897
2.9575 0.28290081059234307 0.17420410678595422
2.98 0.2932282387122183 0.17617195317104803
3.0025 0.30357504336772556 0.17752339727588448
3.025 0.3139050407435667 0.17826742407071086
3.0475 0.3241836587916749 0.17841489335337465
3.07 0.33437797495084237 0.17797833775052754
3.0925 0.3444567344474599 0.17697177366264494
3.115 0.3543903525819827 0.1754105259383133
3.1375 0.36415090413062345 0.1733110664898745
3.16 0.3737121026517435 0.17069086659896843
3.1825 0.3830492721082161 0.16756826230636954
3.205 0.3921393128242728 0.16396233203045024
3.2275 0.40096066340803 0.15989278540357849
3.25 0.4094932599050924 0.15537986224413267
3.2725 0.41771849311648657 0.15044424058036865
3.295 0.425619164724083 0.14510695269727453
3.3175 0.4331794426235692 0.13938930827505466
3.34 0.4403848156709671 0.13331282381502485
3.3625 0.4472220479031213 0.12689915769365143
3.385 0.45367913219311956 0.12017005033793411
3.4075 0.45974524324435495 0.11314726916661358
3.43 0.4654106898070838 0.10585255808478834
3.4525 0.4706668660135272 0.0983075914490549
3.475 0.47550620176624375 0.09053393253234693
3.4975 0.47992211217423386 0.08255299660963136
3.52 0.4839089461068601 0.07438601885600034
3.5425 0.48746193402243776 0.06605402729682042
3.565 0.4905771353219925 0.05757782107549843
3.5875 0.4932513855754061 0.04897795430854627
3.61 0.49548224406365204 0.0402747257808162
3.6325 0.4972679421740736 0.03148817469703585
3.655 0.49860733327306445 0.022638082650274696
3.6775 0.49949984475965276 0.013743981894952156
3.7 0.4999454330721256 0.0048251699228326304
3.7225 0.499944542475859 -0.004099269763422111
3.745 0.49949806850189443 -0.013010440901559577
3.7675 0.4986073269305879 -0.021889602096607653
3.79 0.4972740292210031 -0.03071812931163077
3.8125 0.4955002652728985 -0.03947747385534246
3.835 0.49328849437263844 -0.04814911664869275
3.8575 0.49064154511582786 -0.05671451970335624
3.88 0.4875626250169323 -0.06515507589440832
3.9025 0.4840553404089462 -0.07345205825402702
3.925 0.4801237271040717 -0.0815865701492593
3.9475 0.47577229212959 -0.08953949783098057
3.97 0.4710060666723229 -0.09729146694938566
3.9925 0.4658306701615094 -0.10482280471976536
4.015 0.46025238519527834 -0.11211350948708833
4.0375 0.4542782427724225 -0.11914322947524193
4.06 0.44791611703169937 -0.12589125251291083
4.0825 0.4411748284287688 -0.13233650849947123
4.105 0.43406425400012494 -0.13845758630753016
4.1275 0.42659544307862446 -0.14423276671074522
4.15 0.41878073654183395 -0.14964007277353483
4.1725 0.4106338873985115 -0.15465733894093445
4.195 0.4021701802570411 -0.15926229982051052
4.2175 0.3934065469802845 -0.16343269935308546
4.24 0.38436167562268236 -0.1671464207253046
4.2625 0.3750561095767238 -0.1703816369864625
4.285 0.36551233373693875 -0.17311698189780345
4.3075 0.3557548444303403 -0.17533174007004404
4.33 0.3458101998726232 -0.17700605494171498
4.3525 0.3357070479986673 -0.17812115262708286
4.375 0.32547612869187453 -0.17865957913047176
4.3975 0.3151502477056263 -0.17860544789874983
4.42 0.30476421993488984 -0.17794469418277306
4.4425 0.2943547801566247 -0.1766653322205773
4.465 0.2839604599098916 -0.17475771085989406
4.4875 0.2736214298217549 -0.1722147629250144
4.51 0.2633793073896579 -0.1690322434218133
4.5325 0.25327693098687926 -0.1652089515812432
4.555 0.24335810164246346 -0.16074693177842478
4.5775 0.23366729493503735 -0.1556516485394181
4.6 0.2242493461031403 -0.1499321311627313
4.6225 0.2151491121846167 -0.14360108393301457
4.645 0.2064111156267135 -0.13667495847882422
4.6675 0.198079174332223 -0.12917398550699613
4.69 0.19019602350540682 -0.12112216390965573
4.7125 0.18280293492063493 -0.11254720605848234
4.735 0.17593933935003764 -0.10348043894448439
4.7575 0.16964245785483753 -0.0939566616596478
4.78 0.16394694747672037 -0.08401396052067178
4.8025 0.15888456657545022 -0.0736934838795927
4.825 0.15448386466688727 -0.06303917933193894
4.8475 0.15076990114470198 -0.05209749660715129
4.87 0.1477639967435512 -0.04091705990256076
4.8925 0.14548352104410867 -0.029548313802015915
4.915 0.1439417187508481 -0.018043147210102747
4.9375 0.14314757690677318 -0.0064544999436364
4.96 0.1431057346546762 0.0051640432330533025
4.9825 0.14381643661549817 0.016758666250359374
5.005 0.14527553042926097 0.028275738123633928
5.0275 0.14747450848719207 0.039662227144778905
5.05 0.15040059336728018 0.05086610794219109
5.0725 0.15403686596164365 0.06183675652287039
5.095 0.15836243474680045 0.07252532849755873
5.1175 0.1633526440949789 0.08288511582812423
5.14 0.16897931895890086 0.09287187763917197
5.1625 0.17521104269263263 0.10244414091628548
5.185 0.182013464211503 0.11156346728273606
5.2075 0.18934963016391085 0.12019468251209227
5.23 0.1971803373097414 0.12830606599761712
5.2525 0.20546449989810917 0.13586949805547238
5.275 0.2141595265346242 0.1428605636754569
5.2975 0.22322170084567974 0.1492586121314051
5.32 0.23260656019991668 0.15504677269905145
5.3425 0.24226926684406644 0.16021192757366867
5.365 0.2521649660535971 0.16474464390269464
5.3875 0.2622491262820417 0.16863906761958344
5.41 0.2724778568035662 0.1718927824562308
5.4325 0.28280819896186493 0.1745066380985561
5.455 0.2931983878407085 0.17648455191467297
5.4775 0.3036080819302027 0.17783328901546214
5.5 0.3139985591494482 0.17856222559788254
5.5225 0.3243328783727987 0.1786831005732526
5.545 0.33457600636718376 0.1782097604031507
5.5675 0.3446949107592635 0.17715790186671654
5.59 0.35465862029483014 0.17554481718093468
5.6125 0.36443825421483866 0.17338914550849727
5.635 0.37400702304356287 0.17071063443581708
5.6575 0.38334020345982467 0.16752991450661472
5.68 0.39241509020157817 0.16386828937323616
5.7025 0.4012109281401582 0.15974754359589532
5.725 0.40970882775902345 0.15518976959463873
5.7475 0.41789166729052235 0.15021721475283564
5.77 0.4257439847122564 0.14485214919469835
5.7925 0.4332518626917588 0.13911675432059642
5.815 0.44040280940456894 0.13303303178825426
5.8375 0.44718563794608374 0.12662273227889662
5.86 0.4535903468212161 0.11990730308680744
5.8825 0.45960800373644234 0.11290785331902176
5.905 0.4652306346441607 0.10564513528826112
5.9275 0.4704511197064209 0.09813954052514223
5.95 0.4752630975601953 0.09041110872294417
5.9725 0.4796608789849384 0.0824795478570217
5.995 0.48363937079987784 0.07436426368829105
6.0175 0.4871940105574352 0.06608439686264443
6.04 0.4903207123537628 0.05765886585220247
6.0625 0.49301582385053055 0.04910641404620907
6.085 0.4952760943960814 0.040445659385372895
6.1075 0.49709865395069747 0.03169514503963094
6.13 0.4984810023612204 0.022873389751854108
6.1525 0.4994210083954142 0.013998936605039999
6.175 0.4999169178364917 0.005090399114336593
6.1975 0.49996736985297574 -0.003833496305739523
6.22 0.49957142079791167 -0.012753872297758893
6.2425 0.49872857455342917 -0.02165166759085959
6.265 0.49743881852049293 -0.030507609607353776
6.2875 0.4957026643578669 -0.03930219301203098
6.31 0.4935211925971427 -0.04801566444030998
6.3325 0.4908961003003131 -0.056628013523037174
6.355 0.4878297509808614 -0.0651189702203542
6.3775 0.4843252260766894 -0.07346800838612705
6.4 0.48038637734127193 -0.08165435540961216
6.4225 0.47601787960604597 -0.0896570077234616
6.445 0.4712252834597571 -0.09745475192833662
6.4675 0.4660150674867523 -0.10502619126528728
6.49 0.4603946898030685 -0.1123497771688172
6.5125 0.4543726387233122 -0.11940384565701535
6.535 0.4479584824790907 -0.12616665836074137
6.5575 0.4411629179868038 -0.13261644806182907
6.58 0.4339978187243961 -0.1387314686998584
6.6025 0.4264762818179094 -0.14449004991703251
6.625 0.4186126744541294 -0.14987065633840782
6.6475 0.4104226797195564 -0.154851951926597
6.67 0.4019233419131154 -0.159412869900727
6.6925 0.3931331112854406 -0.16353268886217648
6.715 0.384071888017284 -0.16719111591588456
6.7375 0.3747610650609847 -0.1703683777056948
6.76 0.3652235692312142 -0.17304532038363166
6.7825 0.3554838996462021 -0.17520351959328956
6.805 0.3455681622927684 -0.1768254015530395
6.8275 0.335504099125945 -0.17789437626158291
6.85 0.32532110972830647 -0.17839498370324663
6.8725 0.3150502631610464 -0.1783130536914113
6.895 0.3047242972579365 -0.1776358796462221
6.9175 0.2943776022677506 -0.17635240615146466
6.94 0.2840461854670162 -0.17445342957416468
6.9625 0.27376761317172865 -0.17193181036397975
6.985 0.26358092650372894 -0.16878269488959394
7.0075 0.253526527344086 -0.16500374383563096
7.03 0.24364603115892144 -0.16059536330384847
7.0525 0.2339820838348789 -0.15556093387253903
7.075 0.2245781403271738 -0.14990703201189595
7.0975 0.215478203808554 -0.14364363748076606
7.12 0.2067265251066197 -0.13678431969643948
7.1425 0.19836726351006373 -0.12934639563036174
7.165 0.1904441114768283 -0.12135105159362461
7.1875 0.18299988733881706 -0.11282342138567139
7.21 0.17607610170401478 -0.10379261372656315
7.2325 0.16971250483022224 -0.09429168270113313
7.255 0.1639466236990222 -0.08435753611778797
7.2775 0.15881329876328015 -0.0740307782083971
7.3 0.15434423128799632 -0.0633554849281986
7.3225 0.15056755277230108 -0.05237891219092358
7.345 0.14750742806530584 -0.04115113960779398
7.3675 0.14518370342759787 -0.029724654584841612
7.39 0.14361160992788213 -0.01815388385436246
7.4125 0.14280153121585742 -0.006494681552709261
7.435 0.14275884292456864 0.005196215308562127
7.4575 0.14348382880513105 0.01686175180016386
7.48 0.14497167628623342 0.02844512743719644
7.5025 0.14721255160150062 0.03989036261294538
7.525 0.15019175207105895 0.05114284601885867
7.5475 0.15388993069148543 0.062149850753555155
7.57 0.15828338600358682 0.07286100810426853
7.5925 0.16334440837504272 0.0832287296788937
7.615 0.169041672434792 0.09320857057518296
7.6375 0.1753406644784497 0.10275952848047791
7.66 0.1822041332476021 0.11184427587984304
7.6825 0.1895925525584418 0.12042932479523209
7.705 0.19746458477678844 0.12848512557669917
7.7275 0.20577753504471624 0.1359861031298489
7.75 0.21448778737988258 0.1429106355242165
7.7725 0.22355121520420868 0.1492409811417094
7.795 0.2329235604231186 0.15496316137310986
7.8175 0.2425607767831167 0.16006680635678064
7.84 0.2524193348055116 0.1645449713990947
7.8625 0.26245648706144475 0.16839393155800833
7.885 0.2726304938661525 0.17161296145752894
7.9075 0.28290081059234296 0.17420410678595427
7.93 0.2932282387122177 0.17617195317104792
7.9525 0.303575043367725 0.17752339727588445
7.975 0.31390504074356707 0.17826742407071092
7.9975 0.3241836587916746 0.1784148933533747
8.02 0.33437797495084276 0.17797833775052752
8.0425 0.3444567344474596 0.17697177366264494
8.065 0.3543903525819832 0.1754105259383132
8.0875 0.3641509041306234 0.1733110664898746
8.11 0.3737121026517434 0.17069086659896848
8.1325 0.3830492721082155 0.16756826230636981
8.155 0.39213931282427245 0.1639623320304504
8.1775 0.4009606634080302 0.1598927854035784
8.2 0.40949325990509183 0.155379862244133
8.2225 0.4177184931164865 0.1504442405803687
8.245 0.4256191647240826 0.1451069526972747
8.2675 0.4331794426235696 0.13938930827505439
8.29 0.44038481567096704 0.13331282381502493
8.3125 0.4472220479031212 0.12689915769365148
8.335 0.45367913219311967 0.12017005033793393
8.3575 0.45974524324435506 0.11314726916661338
8.38 0.4654106898070838 0.10585255808478838
8.4025 0.47066686601352714 0.098307591449055
8.425 0.4755062017662438 0.09053393253234673
8.4475 0.47992211217423375 0.0825529966096317
8.47 0.48390894610686014 0.07438601885600016
8.4925 0.48746193402243787 0.06605402729682024
8.515 0.4905771353219924 0.05757782107549876
8.5375 0.493251385575406 0.04897795430854661
8.56 0.49548224406365204 0.04027472578081629
8.5825 0.4972679421740736 0.03148817469703593
8.605 0.49860733327306445 0.02263808265027477
8.6275 0.4994998447596528 0.013743981894951957
8.65 0.4999454330721256 0.004825169922832429
8.6725 0.499944542475859 -0.004099269763422312
8.695 0.49949806850189443 -0.01301044090155978
8.7175 0.4986073269305879 -0.021889602096607296
8.74 0.49727402922100317 -0.030718129311630416
8.7625 0.4955002652728986 -0.039477473855342116
8.785 0.49328849437263844 -0.04814911664869241
8.8075 0.49064154511582786 -0.05671451970335618
8.83 0.48756262501693237 -0.06515507589440822
8.8525 0.4840553404089459 -0.07345205825402772
8.875 0.48012372710407164 -0.08158657014925949
8.8975 0.47577229212959005 -0.08953949783098049
8.92 0.4710060666723231 -0.09729146694938537
8.9425 0.46583067016150925 -0.10482280471976552
8.965 0.4602523851952785 -0.11211350948708805
8.9875 0.4542782427724224 -0.11914322947524211
9.01 0.447916117031699 -0.12589125251291117
9.0325 0.44117482842876893 -0.1323365084994712
9.055 0.4340642540001247 -0.13845758630753033
9.0775 0.42659544307862474 -0.144232766710745
9.1 0.418780736541834 -0.1496400727735348
9.1225 0.4106338873985121 -0.15465733894093406
9.145 0.40217018025704093 -0.1592622998205106
9.1675 0.3934065469802849 -0.16343269935308533
9.19 0.38436167562268214 -0.1671464207253047
9.2125 0.3750561095767233 -0.1703816369864626
9.235 0.36551233373693853 -0.17311698189780345
9.2575 0.35575484443034006 -0.17533174007004412
9.28 0.34581019987262357 -0.17700605494171498
9.3025 0.33570704799866735 -0.17812115262708283
9.325 0.32547612869187525 -0.17865957913047179
9.3475 0.31515024770562633 -0.17860544789874977
9.37 0.3047642199348899 -0.17794469418277312
9.3925 0.2943547801566245 -0.1766653322205773
9.415 0.2839604599098917 -0.1747577108598941
9.4375 0.27362142982175464 -0.1722147629250143
9.46 0.2633793073896577 -0.16903224342181325
9.4825 0.25327693098687937 -0.1652089515812433
9.505 0.24335810164246358 -0.1607469317784248
9.5275 0.23366729493503682 -0.15565164853941782
9.55 0.22424934610314037 -0.1499321311627313
9.5725 0.21514911218461646 -0.14360108393301443
9.595 0.20641111562671358 -0.13667495847882424
9.6175 0.19807917433222308 -0.1291739855069962
9.64 0.19019602350540693 -0.12112216390965581
9.6625 0.18280293492063537 -0.11254720605848297
9.685 0.17593933935003794 -0.10348043894448476
9.7075 0.1696424578548378 -0.0939566616596482
9.73 0.16394694747672006 -0.08401396052067123
9.7525 0.15888456657545041 -0.07369348387959311
9.775 0.15448386466688704 -0.06303917933193835
9.7975 0.15076990114470198 -0.052097496607151385
9.82 0.1477639967435511 -0.04091705990256016
9.8425 0.14548352104410867 -0.029548313802016012
9.865 0.14394171875084813 -0.018043147210103208
9.8875 0.14314757690677316 -0.006454499943636136
9.91 0.14310573465467613 0.005164043233052842
9.9325 0.14381643661549817 0.016758666250359277
9.955 0.14527553042926095 0.02827573812363347
9.9775 0.1474745084871921 0.039662227144779155
10.0 0.15040059336728 0.05086610794219065
