!Created with skrf (http://scikit-rf.org).
# GHz S RI R 50.0 
!freq ReS11 ImS11
1.0 0.40421819842270723 0.053256200035858396
1.0225 0.4027199642928582 0.06040534200499342
1.045 0.40406455613010606 0.06823941851425039
1.0675 0.4083503542753666 0.07603538207732598
1.09 0.4154911420182188 0.08307158824388929
1.1125 0.42522653152559536 0.08867995062544981
1.135 0.4371487396688616 0.09229036343438798
1.1575 0.45074087855611544 0.09346209433198407
1.18 0.46542043332912036 0.0918996995566492
1.2025 0.48058169130549805 0.08745399530451546
1.225 0.4956322573553175 0.08011093855807244
1.2475 0.5100208172882156 0.06997250383380033
1.27 0.5232553480345109 0.0572337883482974
1.2925 0.5349125689885593 0.0421599299112672
1.315 0.5446403983690793 0.025065375450012337
1.3375 0.5521555572092774 0.0062969380187798685
1.36 0.5572384078977664 -0.013778854820643914
1.3825 0.5597268082598056 -0.03478429876760593
1.405 0.5595103594705221 -0.05633554448694527
1.4275 0.5565260264607534 -0.078044965418103
1.45 0.5507557603556154 -0.09952181090526593
1.4725 0.5422264612236576 -0.12037213430879576
1.495 0.5310123675898085 -0.14019900165800706
1.5175 0.5172397149249859 -0.1586039970600476
1.54 0.501093233396524 -0.1751910418737516
1.5625 0.4828237262085935 -0.18957350690417374
1.585 0.46275557135058 -0.20138546900254534
1.6075 0.44129253949539987 -0.21029767614747003
1.63 0.41891988311095973 -0.21603826471346282
1.6525 0.39620034839108176 -0.21841746759230396
1.675 0.37376176982589865 -0.2173544730311905
1.6975 0.35227442957190996 -0.21290336239784724
1.72 0.33241755771118503 -0.20527393516370612
1.7425 0.3148362232654742 -0.1948426158466347
1.765 0.30009217512319236 -0.182148961624644
1.7875 0.28861440313886566 -0.16787484156926696
1.81 0.28065657840132424 -0.1528060837544256
1.8325 0.2762684353780433 -0.13777976266420908
1.855 0.2752862980113101 -0.12362341752119424
1.8775 0.27734465119195656 -0.11109436676956652
1.9 0.281906803700507 -0.10082727037557339
1.9225 0.28830939562673275 -0.0932961877559601
1.945 0.2958136644951222 -0.08879422954164497
1.9675 0.3036563306635818 -0.08743050022413268
1.99 0.31109441337418636 -0.08914129897724689
2.0125 0.31744057023185523 -0.09371102172192713
2.035 0.32208792403180764 -0.10079794762582926
2.0575 0.3245252526593729 -0.10996080179387724
2.08 0.3243446158591881 -0.12068322190645525
2.1025 0.321243980021088 -0.1323946156033551
2.125 0.3150273321215955 -0.14448710537271103
2.1475 0.3056043421672478 -0.15632919073715806
2.17 0.2929910058703369 -0.16727739175716766
2.1925 0.27731198327955847 -0.17668750386703838
2.215 0.258804597327645 -0.18392722863658284
2.2375 0.23782368922568073 -0.18839186173945457
2.26 0.2148457644883891 -0.18952439742242216
2.2825 0.19047015377440257 -0.1868408003535713
2.305 0.16541436283974115 -0.17996025230085494
2.3275 0.1405005688160101 -0.16863889775374408
2.35 0.1166305567604341 -0.1528040847473372
2.3725 0.09474748824080653 -0.13258457096655
2.395 0.07578484012985261 -0.10833104929610829
2.4175 0.06060548981543058 -0.08062114647020246
2.44 0.04993676825907563 -0.05024420153520627
2.4625 0.044309581387456026 -0.01816377909283145
2.485 0.04401056153137692 0.014540335148777828
2.5075 0.04905506813920611 0.04674484172280134
2.53 0.05918571821673772 0.07736133887720315
2.5525 0.0738967064917039 0.10541015090784238
2.575 0.09247968195583972 0.1300803236083073
2.5975 0.11408361887118187 0.15076955308765674
2.62 0.13777974259551992 0.16710184205142303
2.6425 0.16262322964409573 0.17892455190117176
2.665 0.18770556336942315 0.18628932186006228
2.6875 0.21219425104631623 0.18942264622450997
2.71 0.23535929932950764 0.18869183242613194
2.7325 0.25658788163586804 0.18457102290604885
2.755 0.27538982219960983 0.17761046034677389
2.7775 0.2913969337485117 0.16841063289461194
2.8 0.3043590788283912 0.15760161839191272
2.8225 0.3141393021707978 0.14582696436186576
2.845 0.3207096831872746 0.133730796895642
2.8675 0.3241487971801319 0.12194650044859193
2.89 0.32464090602202567 0.11108520237109126
2.9125 0.3224762448929429 0.1017224062985715
2.935 0.3180510499120488 0.09438145722809976
2.9575 0.31186532988589866 0.08951312356277817
2.98 0.30451592461276056 0.0874714808953408
3.0025 0.2966822724035927 0.08848746542831804
3.025 0.2891027257169825 0.09264281805575969
3.0475 0.28254036898145557 0.09984840783356583
3.07 0.27773913231543634 0.10983171314487757
3.0925 0.2753733369704883 0.12213810574157072
3.115 0.27599613450075133 0.13614920429121524
3.1375 0.27999388210034104 0.15111895072870857
3.16 0.287553633731255 0.16622469568282364
3.1825 0.2986492818017403 0.18062735027389631
3.205 0.3130487168530731 0.19353257765374182
3.2275 0.3303405248659048 0.20424476110814377
3.25 0.34997532784192864 0.21220717217189647
3.2725 0.3713148248842207 0.2170247882739774
3.295 0.3936813025895207 0.21846960662324155
3.3175 0.41640163576547484 0.21647113311884725
3.34 0.43884195651626895 0.21109641843102023
3.3625 0.46043149940951617 0.2025244641113883
3.385 0.4806760700345895 0.19101929170567392
3.4075 0.49916285715795927 0.17690488288754747
3.43 0.5155588996093305 0.16054396358720543
3.4525 0.5296055744390157 0.14232150088894757
3.475 0.5411111944443254 0.12263294387102255
3.4975 0.5499433732675705 0.10187668936338576
3.52 0.5560223634267447 0.08044994390866034
3.5425 0.5593161668037909 0.05874701128309403
3.565 0.5598378806217323 0.037158990105403536
3.5875 0.5576454649215438 0.016073864426022613
3.61 0.5528438719487725 -0.004124019582334312
3.6325 0.545589228593759 -0.023056082915186023
3.655 0.5360944774008243 -0.04035420505321542
3.6775 0.5246355391984275 -0.05566883642267234
3.7 0.5115566648992678 -0.06868117426689137
3.7225 0.4972732377623516 -0.0791196388951724
3.745 0.4822699640431178 -0.08678023616011582
3.7675 0.4670922975636963 -0.09154948301219268
3.79 0.452329265290919 -0.09342748300822731
3.8125 0.43858675998614327 -0.09254767123418164
3.835 0.4264518963832757 -0.08918903598283386
3.8575 0.41645103281996 -0.08377666429805183
3.88 0.4090061179813259 -0.07686756409606889
3.9025 0.40439549980284 -0.06912092693743994
3.925 0.4027255906101767 -0.06125493792248788
3.9475 0.4039184655150153 -0.053995148920496165
3.97 0.4077177501946019 -0.04802139952962953
3.9925 0.4137117424393649 -0.04392062127642625
4.015 0.4213696087875896 -0.0421514673405773
4.0375 0.43008457611136003 -0.043024056196998284
4.06 0.4392177005973002 -0.046695068435837594
4.0825 0.44813687872400604 -0.05317585815129165
4.105 0.45624770094646916 -0.06234968294037703
4.1275 0.46301486600180414 -0.07399373640499468
4.15 0.4679746457038691 -0.08780215469745353
4.1725 0.47074005340360425 -0.10340717537388884
4.195 0.4710009047861654 -0.12039677889523914
4.2175 0.4685209998675417 -0.13832818133896166
4.24 0.4631343833094297 -0.15673734748015797
4.2625 0.45474221974010537 -0.1751452391452225
4.285 0.4433113619091944 -0.19306184820495734
4.3075 0.42887524555698514 -0.20998925001043986
4.33 0.4115373239186536 -0.22542500614253558
4.3525 0.3914768367836134 -0.23886727519714845
4.375 0.3689562637295378 -0.2498229554995079
4.3975 0.3443293158390361 -0.2578200499365705
4.42 0.3180477782862899 -0.2624251482597988
4.4425 0.29066497639091604 -0.2632663890087368
4.465 0.2628332103991944 -0.26006142513299024
4.4875 0.2352923655027146 -0.25264875956879373
4.51 0.20884727358824065 -0.24101942802735676
4.5325 0.18433248449096323 -0.22534462378653755
4.555 0.16256497879396453 -0.20599387793586507
4.5775 0.14428786253006237 -0.18353831197147819
4.6 0.1301107503784626 -0.15873467851554127
4.6225 0.12045461932197095 -0.13248851440407555
4.645 0.11550959046554615 -0.1057983812831882
4.6675 0.11521284181813878 -0.07968700085009048
4.69 0.11925072707586307 -0.0551279886383919
4.7125 0.12708491244606018 -0.03297791049979311
4.735 0.13799813215949772 -0.013922178476716118
4.7575 0.15115217440747444 0.001559728061661006
4.78 0.1656496395429238 0.013208108575279612
4.8025 0.18059186958686876 0.02097795079823539
4.825 0.19512766058014883 0.02501938551521138
4.8475 0.20849010665593584 0.02564920216731275
4.87 0.22002143562458332 0.023318667033556444
4.8925 0.22918751346612012 0.018581736799023155
4.915 0.2355846714701097 0.012066229589251156
4.9375 0.23894173157717252 0.004449000030592966
4.96 0.23911977117862798 -0.003565094894292661
4.9825 0.2361114868558848 -0.01126155638410576
5.005 0.2300411510663144 -0.017933583671388215
5.0275 0.22116521474650375 -0.022900233171054697
5.05 0.20987266417277328 -0.02552708746315012
5.0725 0.19668336211741055 -0.025250628744293818
5.095 0.18224189412867145 -0.021606648755906066
5.1175 0.16730405807802387 -0.014261804119442945
5.14 0.15271328443299664 -0.00304592993752735
5.1625 0.13936515983391917 0.012018821441566921
5.185 0.12815995269009883 0.030697164564406534
5.2075 0.11994549034315685 0.05253373125789133
5.23 0.11545548254717766 0.07686465683555116
5.2525 0.11525069900767783 0.10285004036245887
5.275 0.11967145266743359 0.12952610461010616
5.2975 0.12880899688689235 0.1558719799253767
5.32 0.14250064652891928 0.1808828562354246
5.3425 0.16034930484607413 0.20363980412216945
5.365 0.1817637580000789 0.2233673423222321
5.3875 0.20601279733784317 0.23947255599967687
5.41 0.23228475093072248 0.2515633542528113
5.4325 0.2597444847643472 0.2594471765355209
5.455 0.2875818918439932 0.2631142098896973
5.4775 0.31504852859880805 0.2627105363488252
5.5 0.34148161329208415 0.2585066603857221
5.5225 0.3663165591592281 0.2508659589624318
5.545 0.38909038374284133 0.24021623680427096
5.5675 0.40943877609519813 0.22702616649359167
5.59 0.42708951004837675 0.21178720269195017
5.6125 0.44185448666446037 0.1950006855087703
5.635 0.4536221550003482 0.1771692837066073
5.6575 0.4623515152215045 0.15879161100498376
5.68 0.4680684067767103 0.14035870063658046
5.7025 0.470864334297115 0.122350979760937
5.725 0.47089766436028163 0.10523440868575004
5.7475 0.4683966069578282 0.08945453494242167
5.77 0.4636629543826888 0.07542738597493952
5.7925 0.45707509137720054 0.06352643905717785
5.815 0.4490883613239377 0.05406542649722011
5.8375 0.4402305777493064 0.0472775058000755
5.86 0.4310904667856619 0.04329234008118393
5.8825 0.4222972984219074 0.04211378370738132
5.905 0.41449105516766427 0.04360190791900619
5.9275 0.408284199061857 0.04746366672150353
5.95 0.40421819842270734 0.05325620003585827
5.9725 0.4027199642928582 0.060405342004993215
5.995 0.40406455613010606 0.06823941851425028
6.0175 0.4083503542753667 0.07603538207732634
6.04 0.4154911420182187 0.08307158824388919
6.0625 0.4252265315255954 0.08867995062544984
6.085 0.4371487396688616 0.09229036343438818
6.1075 0.4507408785561149 0.09346209433198416
6.13 0.4654204333291206 0.0918996995566493
6.1525 0.48058169130549766 0.08745399530451572
6.175 0.49563225735531796 0.08011093855807212
6.1975 0.5100208172882156 0.0699725038338002
6.22 0.5232553480345108 0.0572337883482975
6.2425 0.5349125689885589 0.042159929911267824
6.265 0.5446403983690795 0.025065375450012188
6.2875 0.5521555572092771 0.006296938018780424
6.31 0.5572384078977666 -0.013778854820644594
6.3325 0.5597268082598057 -0.03478429876760608
6.355 0.559510359470522 -0.05633554448694627
6.3775 0.5565260264607533 -0.0780449654181034
6.4 0.5507557603556155 -0.09952181090526574
6.4225 0.5422264612236576 -0.12037213430879563
6.445 0.5310123675898092 -0.14019900165800597
6.4675 0.5172397149249854 -0.1586039970600479
6.49 0.5010932333965246 -0.17519104187375106
6.5125 0.4828237262085931 -0.18957350690417407
6.535 0.46275557135058043 -0.20138546900254517
6.5575 0.44129253949539915 -0.21029767614747039
6.58 0.4189198831109593 -0.2160382647134627
6.6025 0.39620034839108187 -0.21841746759230385
6.625 0.3737617698258989 -0.21735447303119054
6.6475 0.3522744295719098 -0.21290336239784724
6.67 0.332417557711185 -0.205273935163706
6.6925 0.314836223265475 -0.19484261584663515
6.715 0.30009217512319236 -0.18214896162464392
6.7375 0.288614403138866 -0.16787484156926713
6.76 0.2806565784013241 -0.15280608375442506
6.7825 0.2762684353780429 -0.13777976266420905
6.805 0.2752862980113102 -0.1236234175211944
6.8275 0.27734465119195606 -0.11109436676956694
6.85 0.281906803700507 -0.10082727037557344
6.8725 0.28830939562673286 -0.09329618775596012
6.895 0.2958136644951224 -0.08879422954164494
6.9175 0.30365633066358205 -0.08743050022413267
6.94 0.31109441337418664 -0.08914129897724707
6.9625 0.31744057023185557 -0.09371102172192734
6.985 0.3220879240318074 -0.10079794762582882
7.0075 0.32452525265937293 -0.10996080179387697
7.03 0.32434461585918806 -0.12068322190645471
7.0525 0.3212439800210882 -0.13239461560335516
7.075 0.31502733212159545 -0.14448710537271064
7.0975 0.3056043421672478 -0.15632919073715823
7.12 0.2929910058703369 -0.16727739175716796
7.1425 0.27731198327955786 -0.17668750386703835
7.165 0.2588045973276462 -0.18392722863658237
7.1875 0.2378236892256806 -0.18839186173945435
7.21 0.2148457644883896 -0.18952439742242239
7.2325 0.1904701537744023 -0.1868408003535711
7.255 0.1654143628397412 -0.17996025230085516
7.2775 0.14050056881601103 -0.16863889775374447
7.3 0.11663055676043343 -0.15280408474733664
7.3225 0.09474748824080678 -0.1325845709665503
7.345 0.07578484012985202 -0.1083310492961071
7.3675 0.06060548981543136 -0.08062114647020413
7.39 0.04993676825907574 -0.050244201535206715
7.4125 0.044309581387456165 -0.018163779092833298
7.435 0.04401056153137686 0.014540335148777839
7.4575 0.04905506813920614 0.046744841722801814
7.48 0.05918571821673789 0.07736133887720378
7.5025 0.07389670649170428 0.10541015090784317
7.525 0.09247968195584022 0.13008032360830799
7.5475 0.11408361887118153 0.15076955308765638
7.57 0.13777974259551817 0.16710184205142187
7.5925 0.1626232296440955 0.17892455190117165
7.615 0.18770556336942168 0.18628932186006203
7.6375 0.2121942510463165 0.18942264622450994
7.66 0.23535929932950783 0.18869183242613186
7.6825 0.25658788163586854 0.18457102290604874
7.705 0.2753898221996105 0.1776104603467735
7.7275 0.2913969337485121 0.16841063289461178
7.75 0.30435907882839097 0.15760161839191283
7.7725 0.31413930217079755 0.14582696436186585
7.795 0.3207096831872745 0.13373079689564213
7.8175 0.3241487971801322 0.12194650044859198
7.84 0.32464090602202544 0.11108520237109107
7.8625 0.3224762448929434 0.10172240629857204
7.885 0.3180510499120487 0.09438145722809965
7.9075 0.31186532988589843 0.08951312356277814
7.93 0.3045159246127606 0.08747148089534078
7.9525 0.2966822724035935 0.08848746542831788
7.975 0.2891027257169825 0.09264281805575984
7.9975 0.2825403689814552 0.09984840783356588
8.02 0.2777391323154367 0.10983171314487762
8.0425 0.27537333697048827 0.12213810574157057
8.065 0.2759961345007516 0.1361492042912156
8.0875 0.27999388210034093 0.1511189507287089
8.11 0.28755363373125487 0.16622469568282322
8.1325 0.29864928180173944 0.18062735027389587
8.155 0.3130487168530724 0.19353257765374118
8.1775 0.3303405248659051 0.20424476110814363
8.2 0.34997532784192736 0.21220717217189614
8.2225 0.37131482488422024 0.2170247882739772
8.245 0.39368130258952005 0.21846960662324158
8.2675 0.41640163576547595 0.21647113311884708
8.29 0.438841956516269 0.21109641843102028
8.3125 0.46043149940951567 0.20252446411138847
8.335 0.4806760700345896 0.19101929170567372
8.3575 0.4991628571579593 0.17690488288754724
8.38 0.5155588996093304 0.16054396358720555
8.4025 0.5296055744390159 0.14232150088894738
8.425 0.5411111944443256 0.12263294387102211
8.4475 0.5499433732675703 0.10187668936338655
8.47 0.5560223634267448 0.08044994390865992
8.4925 0.5593161668037909 0.058747011283093856
8.515 0.5598378806217326 0.03715899010540455
8.5375 0.5576454649215439 0.01607386442602339
8.56 0.5528438719487726 -0.004124019582334139
8.5825 0.5455892285937591 -0.023056082915185856
8.605 0.5360944774008244 -0.040354205053215235
8.6275 0.5246355391984273 -0.05566883642267263
8.65 0.511556664899267 -0.0686811742668917
8.6725 0.4972732377623514 -0.07911963889517262
8.695 0.4822699640431175 -0.08678023616011596
8.7175 0.4670922975636965 -0.09154948301219237
8.74 0.45232926529091977 -0.09342748300822741
8.7625 0.4385867599861437 -0.0925476712341817
8.785 0.42645189638327596 -0.08918903598283395
8.8075 0.41645103281996004 -0.0837766642980519
8.83 0.409006117981326 -0.07686756409606892
8.8525 0.4043954998028397 -0.06912092693744008
8.875 0.40272559061017676 -0.061254937922487804
8.8975 0.4039184655150152 -0.053995148920496505
8.92 0.4077177501946019 -0.048021399529629465
8.9425 0.41371174243936526 -0.04392062127642604
8.965 0.42136960878758956 -0.04215146734057715
8.9875 0.4300845761113605 -0.0430240561969983
9.01 0.4392177005973002 -0.0466950684358379
9.0325 0.44813687872400604 -0.05317585815129157
9.055 0.456247700946469 -0.06234968294037717
9.0775 0.4630148660018042 -0.07399373640499439
9.1 0.4679746457038688 -0.08780215469745326
9.1225 0.47074005340360436 -0.10340717537388797
9.145 0.4710009047861653 -0.12039677889523918
9.1675 0.46852099986754203 -0.1383281813389613
9.19 0.4631343833094295 -0.1567373474801586
9.2125 0.45474221974010487 -0.17514523914522298
9.235 0.443311361909194 -0.19306184820495817
9.2575 0.4288752455569848 -0.20998925001044022
9.28 0.41153732391865416 -0.22542500614253536
9.3025 0.39147683678361356 -0.23886727519714834
9.325 0.36895626372953916 -0.2498229554995075
9.3475 0.34432931583903653 -0.25782004993657026
9.37 0.3180477782862904 -0.2624251482597988
9.3925 0.2906649763909158 -0.26326638900873683
9.415 0.2628332103991946 -0.2600614251329904
9.4375 0.23529236550271343 -0.2526487595687933
9.46 0.20884727358824012 -0.24101942802735657
9.4825 0.184332484490963 -0.22534462378653727
9.505 0.16256497879396475 -0.20599387793586524
9.5275 0.1442878625300616 -0.18353831197147707
9.55 0.13011075037846284 -0.15873467851554177
9.5725 0.12045461932197074 -0.13248851440407505
9.595 0.11550959046554621 -0.10579838128318841
9.6175 0.11521284181813878 -0.07968700085009066
9.64 0.11925072707586305 -0.05512798863839209
9.6625 0.12708491244605963 -0.03297791049979448
9.685 0.13799813215949736 -0.013922178476716812
9.7075 0.151152174407474 0.001559728061660437
9.73 0.16564963954292442 0.013208108575280125
9.7525 0.18059186958686857 0.020977950798235043
9.775 0.1951276605801498 0.02501938551521142
9.7975 0.208490106655936 0.02564920216731257
9.82 0.22002143562458398 0.023318667033556097
9.8425 0.22918751346612007 0.01858173679902321
9.865 0.23558467147010953 0.012066229589251357
9.8875 0.23894173157717247 0.004449000030593544
9.91 0.2391197711786281 -0.003565094894292432
9.9325 0.2361114868558849 -0.011261556384105378
9.955 0.2300411510663145 -0.017933583671388354
9.9775 0.22116521474650336 -0.022900233171054996
10.0 0.2098726641727734 -0.02552708746315035
