!Created with skrf (http://scikit-rf.org).
# GHz S RI R 50.0 
!freq ReS11 ImS11
1.0 0.5411111944443255 0.12263294387102222
1.0225 0.5499433732675705 0.10187668936338555
1.045 0.5560223634267447 0.08044994390866034
1.0675 0.5593161668037909 0.058747011283094286
1.09 0.5598378806217325 0.037158990105403765
1.1125 0.5576454649215438 0.01607386442602283
1.135 0.5528438719487724 -0.004124019582334527
1.1575 0.5455892285937589 -0.023056082915186217
1.18 0.5360944774008243 -0.040354205053215346
1.2025 0.5246355391984273 -0.05566883642267266
1.225 0.5115566648992675 -0.06868117426689158
1.2475 0.49727323776235155 -0.07911963889517253
1.27 0.4822699640431177 -0.08678023616011583
1.2925 0.46709229756369613 -0.09154948301219265
1.315 0.45232926529091905 -0.09342748300822717
1.3375 0.4385867599861436 -0.09254767123418176
1.36 0.42645189638327585 -0.08918903598283395
1.3825 0.41645103281996 -0.08377666429805197
1.405 0.409006117981326 -0.07686756409606896
1.4275 0.40439549980283984 -0.06912092693743997
1.45 0.40272559061017676 -0.06125493792248782
1.4725 0.40391846551501537 -0.05399514892049611
1.495 0.4077177501946021 -0.048021399529629395
1.5175 0.4137117424393649 -0.043920621276426285
1.54 0.42136960878758967 -0.042151467340577245
1.5625 0.4300845761113601 -0.04302405619699824
1.585 0.43921770059730025 -0.04669506843583769
1.6075 0.44813687872400587 -0.05317585815129178
1.63 0.456247700946469 -0.062349682940376766
1.6525 0.4630148660018039 -0.07399373640499432
1.675 0.46797464570386915 -0.08780215469745366
1.6975 0.4707400534036043 -0.10340717537388867
1.72 0.4710009047861654 -0.12039677889523943
1.7425 0.4685209998675416 -0.13832818133896183
1.765 0.4631343833094296 -0.15673734748015833
1.7875 0.4547422197401052 -0.1751452391452227
1.81 0.44331136190919446 -0.19306184820495748
1.8325 0.4288752455569853 -0.20998925001043983
1.855 0.4115373239186539 -0.22542500614253538
1.8775 0.3914768367836132 -0.2388672751971486
1.9 0.3689562637295377 -0.249822955499508
1.9225 0.3443293158390361 -0.2578200499365704
1.945 0.3180477782862903 -0.2624251482597988
1.9675 0.2906649763909161 -0.2632663890087368
1.99 0.26283321039919477 -0.26006142513299046
2.0125 0.2352923655027141 -0.2526487595687935
2.035 0.2088472735882406 -0.24101942802735665
2.0575 0.18433248449096235 -0.225344623786537
2.08 0.16256497879396412 -0.2059938779358647
2.1025 0.1442878625300621 -0.1835383119714778
2.125 0.1301107503784626 -0.15873467851554146
2.1475 0.12045461932197116 -0.13248851440407622
2.17 0.11550959046554611 -0.10579838128318826
2.1925 0.11521284181813879 -0.07968700085009033
2.215 0.11925072707586305 -0.055127988638392134
2.2375 0.12708491244606 -0.03297791049979361
2.26 0.13799813215949763 -0.013922178476716146
2.2825 0.15115217440747433 0.0015597280616610198
2.305 0.16564963954292386 0.013208108575279792
2.3275 0.18059186958686896 0.020977950798235223
2.35 0.1951276605801493 0.025019385515211337
2.3725 0.20849010665593604 0.02564920216731264
2.395 0.22002143562458348 0.023318667033556305
2.4175 0.22918751346612004 0.018581736799023342
2.44 0.23558467147010978 0.012066229589251156
2.4625 0.2389417315771725 0.004449000030593017
2.485 0.23911977117862798 -0.0035650948942926074
2.5075 0.23611148685588484 -0.011261556384105805
2.53 0.23004115106631431 -0.01793358367138822
2.5525 0.22116521474650375 -0.022900233171054815
2.575 0.20987266417277323 -0.025527087463150237
2.5975 0.19668336211741078 -0.02525062874429352
2.62 0.1822418941286717 -0.021606648755905844
2.6425 0.16730405807802334 -0.01426180411944264
2.665 0.15271328443299623 -0.003045929937527392
2.6875 0.13936515983391912 0.012018821441566796
2.71 0.12815995269009872 0.030697164564406396
2.7325 0.11994549034315684 0.05253373125789142
2.755 0.11545548254717776 0.07686465683555072
2.7775 0.11525069900767786 0.10285004036245898
2.8 0.11967145266743354 0.12952610461010577
2.8225 0.12880899688689254 0.15587197992537663
2.845 0.14250064652891883 0.18088285623542408
2.8675 0.16034930484607385 0.20363980412216912
2.89 0.18176375800007905 0.2233673423222321
2.9125 0.20601279733784356 0.2394725559996771
2.935 0.23228475093072284 0.2515633542528114
2.9575 0.25974448476434786 0.2594471765355209
2.98 0.2875818918439935 0.26311420988969736
3.0025 0.31504852859880783 0.26271053634882513
3.025 0.34148161329208404 0.2585066603857221
3.0475 0.36631655915922845 0.2508659589624316
3.07 0.38909038374284094 0.24021623680427118
3.0925 0.4094387760951987 0.22702616649359136
3.115 0.4270895100483768 0.21178720269195014
3.1375 0.44185448666446075 0.19500068550877003
3.16 0.4536221550003483 0.17716928370660717
3.1825 0.4623515152215044 0.15879161100498368
3.205 0.46806840677671013 0.14035870063658096
3.2275 0.47086433429711494 0.12235097976093665
3.25 0.4708976643602818 0.10523440868575025
3.2725 0.46839660695782787 0.08945453494242098
3.295 0.46366295438268906 0.0754273859749396
3.3175 0.45707509137720087 0.06352643905717793
3.34 0.44908836132393704 0.05406542649721996
3.3625 0.44023057774930635 0.0472775058000757
3.385 0.4310904667856621 0.043292340081184
3.4075 0.4222972984219075 0.04211378370738135
3.43 0.41449105516766394 0.04360190791900627
3.4525 0.40828419906185714 0.047463666721503324
3.475 0.40421819842270734 0.05325620003585832
3.4975 0.4027199642928582 0.060405342004993236
3.52 0.40406455613010617 0.06823941851425032
3.5425 0.4083503542753666 0.07603538207732619
3.565 0.4154911420182189 0.0830715882438895
3.5875 0.4252265315255954 0.08867995062544987
3.61 0.4371487396688614 0.09229036343438797
3.6325 0.45074087855611533 0.0934620943319841
3.655 0.4654204333291204 0.0918996995566492
3.6775 0.4805816913054977 0.0874539953045157
3.7 0.4956322573553173 0.08011093855807264
3.7225 0.5100208172882155 0.06997250383380044
3.745 0.5232553480345108 0.05723378834829747
3.7675 0.5349125689885592 0.042159929911267296
3.79 0.5446403983690793 0.025065375450012275
3.8125 0.5521555572092773 0.00629693801877957
3.835 0.5572384078977666 -0.013778854820644323
3.8575 0.5597268082598056 -0.034784298767605956
3.88 0.5595103594705221 -0.05633554448694541
3.9025 0.5565260264607536 -0.07804496541810264
3.925 0.5507557603556155 -0.09952181090526545
3.9475 0.5422264612236575 -0.12037213430879576
3.97 0.5310123675898087 -0.14019900165800658
3.9925 0.517239714924986 -0.15860399706004757
4.015 0.5010932333965241 -0.17519104187375156
4.0375 0.48282372620859354 -0.18957350690417374
4.06 0.4627555713505804 -0.20138546900254517
4.0825 0.44129253949540004 -0.21029767614746991
4.105 0.4189198831109592 -0.21603826471346296
4.1275 0.3962003483910812 -0.2184174675923039
4.15 0.3737617698258988 -0.21735447303119051
4.1725 0.3522744295719097 -0.21290336239784718
4.195 0.3324175577111854 -0.20527393516370623
4.2175 0.31483622326547445 -0.19484261584663476
4.24 0.30009217512319275 -0.18214896162464422
4.2625 0.28861440313886594 -0.167874841569267
4.285 0.2806565784013242 -0.15280608375442573
4.3075 0.27626843537804324 -0.1377797626642091
4.33 0.27528629801131016 -0.12362341752119396
4.3525 0.2773446511919564 -0.11109436676956672
4.375 0.281906803700507 -0.10082727037557339
4.3975 0.28830939562673286 -0.09329618775596009
4.42 0.2958136644951224 -0.08879422954164487
4.4425 0.3036563306635819 -0.08743050022413268
4.465 0.3110944133741863 -0.08914129897724696
4.4875 0.3174405702318552 -0.09371102172192701
4.51 0.3220879240318077 -0.10079794762582922
4.5325 0.32452525265937276 -0.10996080179387671
4.555 0.32434461585918817 -0.12068322190645506
4.5775 0.3212439800210881 -0.13239461560335491
4.6 0.3150273321215955 -0.14448710537271137
4.6225 0.3056043421672475 -0.15632919073715823
4.645 0.2929910058703369 -0.16727739175716774
4.6675 0.2773119832795586 -0.17668750386703835
4.69 0.2588045973276447 -0.18392722863658284
4.7125 0.23782368922568023 -0.1883918617394546
4.735 0.21484576448838905 -0.18952439742242222
4.7575 0.1904701537744025 -0.18684080035357137
4.78 0.16541436283974142 -0.1799602523008551
4.8025 0.1405005688160102 -0.168638897753744
4.825 0.11663055676043464 -0.15280408474733764
4.8475 0.09474748824080673 -0.13258457096655019
4.87 0.0757848401298528 -0.10833104929610851
4.8925 0.06060548981543046 -0.08062114647020201
4.915 0.049936768259076 -0.05024420153520712
4.9375 0.04430958138745607 -0.018163779092831876
4.96 0.044010561531376904 0.014540335148777405
4.9825 0.049055068139206195 0.04674484172280194
5.005 0.059185718216737626 0.07736133887720306
5.0275 0.07389670649170398 0.1054101509078425
5.05 0.09247968195583978 0.1300803236083074
5.0725 0.114083618871182 0.15076955308765655
5.095 0.13777974259552 0.1671018420514228
5.1175 0.16262322964409495 0.17892455190117135
5.14 0.1877055633694229 0.18628932186006245
5.1625 0.21219425104631628 0.1894226462245101
5.185 0.23535929932950778 0.18869183242613202
5.2075 0.25658788163586793 0.18457102290604888
5.23 0.27538982219961006 0.1776104603467737
5.2525 0.2913969337485117 0.168410632894612
5.275 0.3043590788283913 0.15760161839191242
5.2975 0.31413930217079766 0.14582696436186549
5.32 0.3207096831872747 0.13373079689564174
5.3425 0.32414879718013184 0.12194650044859168
5.365 0.32464090602202567 0.11108520237109129
5.3875 0.32247624489294313 0.10172240629857178
5.41 0.3180510499120488 0.09438145722809976
5.4325 0.31186532988589855 0.08951312356277821
5.455 0.30451592461276045 0.08747148089534082
5.4775 0.29668227240359285 0.08848746542831806
5.5 0.2891027257169826 0.09264281805575969
5.5225 0.28254036898145546 0.09984840783356577
5.545 0.27773913231543623 0.10983171314487776
5.5675 0.27537333697048844 0.12213810574157039
5.59 0.27599613450075133 0.1361492042912152
5.6125 0.27999388210034076 0.1511189507287085
5.635 0.28755363373125487 0.1662246956828236
5.6575 0.2986492818017402 0.18062735027389623
5.68 0.3130487168530735 0.19353257765374213
5.7025 0.33034052486590454 0.20424476110814344
5.725 0.34997532784192875 0.21220717217189666
5.7475 0.37131482488421974 0.21702478827397723
5.77 0.3936813025895209 0.2184696066232416
5.7925 0.41640163576547495 0.2164711331188473
5.815 0.43884195651626834 0.21109641843102023
5.8375 0.46043149940951633 0.2025244641113882
5.86 0.48067607003459 0.19101929170567358
5.8825 0.4991628571579597 0.17690488288754708
5.905 0.5155588996093301 0.16054396358720602
5.9275 0.5296055744390158 0.14232150088894746
5.95 0.5411111944443254 0.12263294387102264
5.9725 0.5499433732675705 0.10187668936338586
5.995 0.5560223634267447 0.08044994390866042
6.0175 0.5593161668037909 0.05874701128309352
6.04 0.5598378806217326 0.037158990105403855
6.0625 0.5576454649215438 0.016073864426022696
6.085 0.5528438719487724 -0.004124019582334465
6.1075 0.5455892285937594 -0.023056082915185426
6.13 0.5360944774008242 -0.04035420505321545
6.1525 0.5246355391984275 -0.05566883642267227
6.175 0.5115566648992671 -0.068681174266892
6.1975 0.4972732377623516 -0.07911963889517265
6.22 0.48226996404311784 -0.08678023616011576
6.2425 0.46709229756369675 -0.0915494830121925
6.265 0.4523292652909188 -0.09342748300822712
6.2875 0.4385867599861439 -0.0925476712341819
6.31 0.4264518963832755 -0.08918903598283406
6.3325 0.41645103281995993 -0.08377666429805158
6.355 0.40900611798132563 -0.07686756409606887
6.3775 0.4043954998028399 -0.06912092693743949
6.4 0.40272559061017665 -0.06125493792248807
6.4225 0.4039184655150153 -0.05399514892049619
6.445 0.40771775019460177 -0.04802139952962967
6.4675 0.4137117424393651 -0.04392062127642625
6.49 0.42136960878758933 -0.042151467340577314
6.5125 0.4300845761113602 -0.04302405619699837
6.535 0.4392177005973001 -0.04669506843583755
6.5575 0.44813687872400615 -0.05317585815129208
6.58 0.4562477009464694 -0.06234968294037685
6.6025 0.46301486600180397 -0.07399373640499429
6.625 0.46797464570386915 -0.08780215469745342
6.6475 0.47074005340360425 -0.10340717537388877
6.67 0.4710009047861654 -0.12039677889523952
6.6925 0.468520999867542 -0.13832818133896108
6.715 0.4631343833094296 -0.1567373474801584
6.7375 0.4547422197401054 -0.1751452391452224
6.76 0.443311361909194 -0.19306184820495798
6.7825 0.42887524555698486 -0.20998925001043997
6.805 0.41153732391865433 -0.22542500614253524
6.8275 0.39147683678361367 -0.23886727519714823
6.85 0.36895626372953794 -0.24982295549950784
6.8725 0.3443293158390362 -0.2578200499365704
6.895 0.31804777828629 -0.26242514825979885
6.9175 0.2906649763909155 -0.2632663890087367
6.94 0.26283321039919416 -0.2600614251329903
6.9625 0.23529236550271365 -0.25264875956879346
6.985 0.20884727358824176 -0.24101942802735749
7.0075 0.18433248449096312 -0.22534462378653744
7.03 0.16256497879396478 -0.2059938779358655
7.0525 0.14428786253006232 -0.18353831197147796
7.075 0.13011075037846276 -0.158734678515542
7.0975 0.1204546193219712 -0.13248851440407608
7.12 0.11550959046554629 -0.10579838128318796
7.1425 0.11521284181813866 -0.07968700085008942
7.165 0.11925072707586255 -0.05512798863839358
7.1875 0.12708491244605988 -0.0329779104997934
7.21 0.13799813215949774 -0.013922178476716576
7.2325 0.15115217440747442 0.0015597280616612558
7.255 0.16564963954292414 0.013208108575279584
7.2775 0.18059186958686832 0.020977950798235168
7.3 0.19512766058014952 0.025019385515211573
7.3225 0.20849010665593581 0.025649202167312778
7.345 0.22002143562458382 0.02331866703355634
7.3675 0.22918751346611949 0.018581736799023696
7.39 0.2355846714701097 0.012066229589251382
7.4125 0.2389417315771724 0.004449000030593499
7.435 0.23911977117862804 -0.0035650948942924565
7.4575 0.23611148685588484 -0.011261556384105736
7.48 0.2300411510663142 -0.017933583671388288
7.5025 0.2211652147465035 -0.022900233171054725
7.525 0.20987266417277292 -0.02552708746315009
7.5475 0.196683362117411 -0.0252506287442937
7.57 0.18224189412867264 -0.02160664875590637
7.5925 0.16730405807802345 -0.014261804119442723
7.615 0.15271328443299698 -0.0030459299375281274
7.6375 0.13936515983391892 0.012018821441567004
7.66 0.12815995269009856 0.030697164564406618
7.6825 0.11994549034315673 0.052533731257891875
7.705 0.11545548254717766 0.07686465683555171
7.7275 0.11525069900767794 0.10285004036245947
7.75 0.11967145266743325 0.1295261046101054
7.7725 0.12880899688689235 0.15587197992537627
7.795 0.14250064652891867 0.18088285623542386
7.8175 0.16034930484607435 0.20363980412216937
7.84 0.18176375800007893 0.22336734232223224
7.8625 0.20601279733784278 0.23947255599967657
7.885 0.23228475093072318 0.25156335425281146
7.9075 0.2597444847643479 0.259447176535521
7.93 0.28758189184399224 0.26311420988969725
7.9525 0.31504852859880605 0.2627105363488254
7.975 0.3414816132920848 0.2585066603857221
7.9975 0.3663165591592282 0.25086595896243163
8.02 0.3890903837428414 0.24021623680427107
8.0425 0.4094387760951982 0.2270261664935915
8.065 0.4270895100483775 0.21178720269194962
8.0875 0.44185448666446075 0.19500068550876998
8.11 0.4536221550003482 0.17716928370660764
8.1325 0.46235151522150403 0.1587916110049846
8.155 0.46806840677671 0.14035870063658187
8.1775 0.47086433429711505 0.1223509797609366
8.2 0.47089766436028185 0.10523440868575129
8.2225 0.46839660695782814 0.08945453494242131
8.245 0.4636629543826889 0.07542738597493996
8.2675 0.4570750913772006 0.06352643905717745
8.29 0.44908836132393687 0.05406542649722003
8.3125 0.4402305777493067 0.0472775058000757
8.335 0.4310904667856622 0.04329234008118385
8.3575 0.42229729842190766 0.04211378370738118
8.38 0.4144910551676641 0.04360190791900624
8.4025 0.40828419906185676 0.04746366672150375
8.425 0.4042181984227073 0.053256200035858396
8.4475 0.4027199642928582 0.06040534200499302
8.47 0.40406455613010617 0.06823941851425042
8.4925 0.4083503542753667 0.07603538207732599
8.515 0.4154911420182184 0.08307158824388905
8.5375 0.4252265315255951 0.0886799506254497
8.56 0.43714873966886136 0.09229036343438798
8.5825 0.4507408785561152 0.09346209433198407
8.605 0.4654204333291203 0.0918996995566492
8.6275 0.480581691305498 0.08745399530451557
8.65 0.4956322573553181 0.08011093855807243
8.6725 0.5100208172882158 0.06997250383380021
8.695 0.523255348034511 0.05723378834829717
8.7175 0.534912568988559 0.04215992991126774
8.74 0.5446403983690788 0.02506537545001312
8.7625 0.5521555572092773 0.0062969380187803126
8.785 0.5572384078977662 -0.013778854820643567
8.8075 0.5597268082598056 -0.034784298767605776
8.83 0.5595103594705221 -0.0563355444869452
8.8525 0.5565260264607532 -0.0780449654181038
8.875 0.5507557603556154 -0.09952181090526586
8.8975 0.5422264612236577 -0.12037213430879533
8.92 0.5310123675898091 -0.14019900165800608
8.9425 0.5172397149249854 -0.15860399706004807
8.965 0.5010932333965245 -0.17519104187375117
8.9875 0.48282372620859293 -0.18957350690417415
9.01 0.46275557135057965 -0.2013854690025456
9.0325 0.44129253949540026 -0.21029767614746991
9.055 0.41891988311095896 -0.21603826471346316
9.0775 0.39620034839108165 -0.21841746759230377
9.1 0.37376176982589926 -0.2173544730311907
9.1225 0.35227442957191085 -0.2129033623978473
9.145 0.3324175577111852 -0.20527393516370634
9.1675 0.3148362232654749 -0.19484261584663487
9.19 0.3000921751231924 -0.18214896162464367
9.2125 0.28861440313886544 -0.1678748415692667
9.235 0.2806565784013242 -0.15280608375442478
9.2575 0.27626843537804313 -0.13777976266420888
9.28 0.2752862980113104 -0.1236234175211942
9.3025 0.27734465119195634 -0.11109436676956679
9.325 0.2819068037005071 -0.10082727037557383
9.3475 0.2883093956267325 -0.09329618775596021
9.37 0.295813664495122 -0.08879422954164495
9.3925 0.30365633066358166 -0.08743050022413268
9.415 0.3110944133741863 -0.08914129897724689
9.4375 0.31744057023185573 -0.09371102172192738
9.46 0.32208792403180775 -0.10079794762582933
9.4825 0.32452525265937315 -0.10996080179387718
9.505 0.32434461585918817 -0.12068322190645495
9.5275 0.3212439800210878 -0.13239461560335541
9.55 0.3150273321215955 -0.1444871053727109
9.5725 0.30560434216724724 -0.15632919073715842
9.595 0.292991005870337 -0.1672773917571676
9.6175 0.27731198327955875 -0.1766875038670383
9.64 0.258804597327645 -0.1839272286365828
9.6625 0.2378236892256816 -0.1883918617394545
9.685 0.21484576448838993 -0.18952439742242227
9.7075 0.19047015377440343 -0.18684080035357153
9.73 0.16541436283974023 -0.17996025230085455
9.7525 0.14050056881601078 -0.16863889775374447
9.775 0.11663055676043321 -0.1528040847473366
9.7975 0.09474748824080656 -0.1325845709665502
9.82 0.0757848401298518 -0.10833104929610696
9.8425 0.06060548981543053 -0.08062114647020226
9.865 0.04993676825907625 -0.05024420153520828
9.8875 0.04430958138745607 -0.01816377909283194
9.91 0.04401056153137667 0.014540335148776208
9.9325 0.04905506813920606 0.04674484172280133
9.955 0.05918571821673743 0.07736133887720226
9.9775 0.07389670649170445 0.10541015090784331
10.0 0.09247968195583929 0.13008032360830676
