!Created with skrf (http://scikit-rf.org).
# GHz S RI R 50.0 
!freq ReS11 ImS11
1.0 0.1563848949015929 0.15833961049506406
1.0225 0.1610003279983916 0.15937938394376783
1.045 0.16563519374503333 0.16028306468686598
1.0675 0.17028541290917243 0.16105065309510302
1.09 0.1749469379116455 0.16168227374529365
1.1125 0.17961575656725515 0.1621781726609801
1.135 0.18428789563685744 0.16253871445530566
1.1575 0.18895942419021283 0.16276437938800603
1.18 0.1936264567796242 0.16285576034795834
1.2025 0.1982851564252195 0.16281355977272138
1.225 0.20293173741329545 0.1626385865158655
1.2475 0.20756246790968014 0.1623317526727588
1.27 0.21217367239069906 0.16189407037509707
1.2925 0.2167617338947494 0.16132664856369328
1.315 0.2213230960980379 0.16063068974936812
1.3375 0.22585426521844143 0.1598074867703554
1.36 0.23035181175174735 0.15885841955517588
1.3825 0.23481237204507632 0.15778495189869135
1.405 0.23923264971239977 0.1565886282590372
1.4275 0.24360941689748827 0.15527107058248674
1.45 0.2479395153898052 0.15383397516284647
1.4725 0.2522198575989929 0.15227910954153479
1.495 0.25644742739405046 0.15060830945398607
1.5175 0.260619280813001 0.14882347582758904
1.54 0.2647325466494115 0.1469265718358903
1.5625 0.26878442692187354 0.14491962001332315
1.585 0.27277219723284407 0.14280469943437613
1.6075 0.27669320702305167 0.1405839429604958
1.63 0.2805448797279462 0.13825953455780393
1.6525 0.2843247128423269 0.1358337066881754
1.675 0.2880302778996334 0.13330873777584173
1.6975 0.2916592203719397 0.13068694975136808
1.72 0.29520925949689936 0.1279707056744317
1.7425 0.29867818803764923 0.1251624074364881
1.765 0.30206387198170814 0.12226449354404556
1.7875 0.3053642501845486 0.11927943698310073
1.81 0.30857733396371145 0.11620974316474086
1.8325 0.3117012066489582 0.11305794795184315
1.855 0.3147340230938038 0.10982661576644281
1.8775 0.3176740091538637 0.10651833777706488
1.9 0.3205194611369073 0.10313573016512101
1.9225 0.3232687452297389 0.09968143246922567
1.945 0.3259202969064776 0.09615810600606123
1.9675 0.32847262032293933 0.09256843236623569
1.99 0.33092428770147186 0.0889151119834497
2.0125 0.33327393871041244 0.08520086277493943
2.035 0.3355202798422543 0.08142841885124064
2.0575 0.33766208379431006 0.07760052929299333
2.08 0.3396981888555415 0.07371995699246847
2.1025 0.3416274983030223 0.0697894775572574
2.125 0.34344897981129874 0.06581187827361545
2.1475 0.34516166487774 0.06178995712674529
2.17 0.3467646482667992 0.05772652187512728
2.1925 0.34825708747586637 0.05362438917614606
2.215 0.34963820222535125 0.04948638375995462
2.2375 0.3509072739752144 0.045315337648554777
2.26 0.3520636454702697 0.04111408941701877
2.2825 0.3531067203161635 0.03688548349366361
2.305 0.3540359625879448 0.032632369495985136
2.3275 0.3548508964728031 0.02835760159906675
2.35 0.35555110594854533 0.024064037933206217
2.3725 0.35613623449907406 0.01975454000738819
2.395 0.35660598486804557 0.015431972155253826
2.4175 0.35696011885168366 0.011099201000188241
2.44 0.3571984571315956 0.006759094936091503
2.4625 0.35732087914820165 0.0024145236204318743
2.485 0.357327323015322 -0.0019316425238782298
2.5075 0.3572177854762162 -0.006276532801231416
2.53 0.35699232190127317 -0.01061727673414703
2.5525 0.356651046327344 -0.014951004555638026
2.575 0.3561941315385653 -0.01927484770656185
2.5975 0.35562180918837283 -0.023585939341424833
2.62 0.3549343699622056 -0.02788141484607265
2.6425 0.3541321637802901 -0.03215841237068462
2.665 0.35321560003966956 -0.036414073381529466
2.6875 0.35218514789453614 -0.04064554323480429
2.71 0.3510413365737224 -0.04484997177599426
2.7325 0.3497847557340319 -0.04902451396803181
2.755 0.34841605584797986 -0.05316633055160596
2.7775 0.34693594862426913 -0.05727258874085339
2.8 0.34534520745917474 -0.06134046295765283
2.8225 0.3436446679169176 -0.06536713560769836
2.845 0.3418352282367634 -0.06934979790147366
2.8675 0.33991784986458984 -0.07328565072310989
2.89 0.3378935580063782 -0.07717190555020537
2.9125 0.3357634422008763 -0.08100578542741266
2.935 0.33352865690862254 -0.08478452599662845
2.9575 0.3311904221142129 -0.08850537658654023
2.98 0.3287500239385637 -0.09216560136405416
3.0025 0.32620881525772716 -0.0957624805502153
3.025 0.3235682163246669 -0.09929331170286071
3.0475 0.32082971539009364 -0.10275541106836084
3.07 0.31799486931847154 -0.10614611500445137
3.0925 0.31506530419490986 -0.10946278147614397
3.115 0.3120427159185959 -0.11270279162642932
3.1375 0.30892887077829156 -0.11586355142339722
3.16 0.3057256060050215 -0.11894249338512375
3.1825 0.302434830297178 -0.12193707838349388
3.205 0.2990585243129025 -0.124844797527917
3.2275 0.29559874112446094 -0.12766317412965877
3.25 0.2920576066293663 -0.13038976574716488
3.2725 0.2884373199124972 -0.13302216631265562
3.295 0.28474015355367416 -0.1355580083398502
3.3175 0.28096845387482794 -0.13799496521232602
3.34 0.27712464112079704 -0.14033075355195557
3.3625 0.27321120956772216 -0.14256313566623735
3.385 0.26923072755292976 -0.1446899220731548
3.4075 0.26518583742003177 -0.1467089741018328
3.43 0.261079255373057 -0.14861820656677915
3.4525 0.25691377123316084 -0.1504155905132225
3.475 0.2526922480917886 -0.15209915603063973
3.4975 0.24841762185371596 -0.1536669951309957
3.52 0.24409290066393563 -0.15511726468805268
3.5425 0.2397211642118604 -0.15644818943337824
3.565 0.23530556290695603 -0.1576580650044832
3.5875 0.23084931691950583 -0.1587452610398583
3.61 0.22635571508074603 -0.1597082243153629
3.6325 0.2218281136365321 -0.16054548191580986
3.655 0.2172699348490199 -0.1612556444353208
3.6775 0.2126846654410719 -0.1618374091992667
3.7 0.2080758548783156 -0.1622895635003605
3.7225 0.20344711348414846 -0.16261098784100447
3.745 0.19880211038328333 -0.16280065917329267
3.7675 0.19414457126991413 -0.1628576541279223
3.79 0.1894782759968252 -0.1627811522226077
3.8125 0.18480705598242553 -0.16257043904023094
3.835 0.18013479143310018 -0.16222490936667855
3.8575 0.17546540837873525 -0.1617440702776085
3.88 0.17080287552009032 -0.1611275441634532
3.9025 0.16615120088696145 -0.16037507168128956
3.925 0.1615144283071679 -0.15948651462206004
3.9475 0.15689663368657403 -0.15846185868139662
3.97 0.1523019211016674 -0.15730121612195536
3.9925 0.14773441870635162 -0.15600482831512696
4.015 0.14319827445594369 -0.15457306814976324
4.0375 0.13869765165186054 -0.15300644229548332
4.06 0.13423672431133493 -0.15130559330820859
4.0825 0.12981967236754555 -0.14947130156540922
4.105 0.12545067670618487 -0.14750448701883645
4.1275 0.12113391404554308 -0.14540621075250115
4.15 0.11687355166798707 -0.14317767633402312
4.1725 0.11267374201164526 -0.14082023094759544
4.195 0.10853861713201018 -0.13833536629734144
4.2175 0.1044722830439695 -0.13572471927007834
4.24 0.10047881395580305 -0.1329900723471602
4.2625 0.09656224640737854 -0.1301333537555076
4.285 0.09272657332567125 -0.1271566373486277
4.3075 0.08897573801156611 -0.12406214220913123
4.33 0.0853136280725546 -0.12085223196499739
4.3525 0.08174406931677503 -0.11752941381269011
4.375 0.0782708196243469 -0.11409633724114276
4.3975 0.07489756281279458 -0.11055579245155966
4.42 0.07162790251358864 -0.10691070846907058
4.4425 0.06846535607757898 -0.10316415094324771
4.465 0.06541334852742686 -0.09931931963573071
4.4875 0.06247520657528377 -0.09537954559431094
4.51 0.05965415272453012 -0.09134828801405082
4.5325 0.056953299474265306 -0.08722913078722172
4.555 0.05437564364544878 -0.08302577874519645
4.5775 0.05192406084749579 -0.07874205359657971
4.6 0.0496013001040998 -0.07438188956733716
4.6225 0.0474099786566593 -0.06994932874972992
4.645 0.04535257696361361 -0.06544851616841096
4.6675 0.043431433913290185 -0.06088369457313282
4.69 0.0416487422675611 -0.05625919896885351
4.7125 0.040006544352895634 -0.05157945089519578
4.735 0.03850672801467803 -0.046848952468463434
4.7575 0.03715102284991234 -0.04207228020047582
4.78 0.03594099673242368 -0.03725407860962093
4.8025 0.03487805264381505 -0.03239905364051898
4.825 0.03396342582229431 -0.02751196590960925
4.8475 0.03319818124034174 -0.022597623794867516
4.87 0.032583211421045144 -0.017660876388649882
4.8925 0.032119234601599045 -0.012706606333313775
4.915 0.0318067932511672 -0.007739722559865991
4.9375 0.031646252948942744 -0.002765152950424954
4.96 0.03163780162684571 0.0022121630543826543
4.9825 0.03178144917983383 0.007187281881658958
5.005 0.03207702744536722 0.012155263264499783
5.0275 0.032524190552148724 0.017111177670643185
5.05 0.03312241563668217 0.022050113699861873
5.0725 0.03387100392490899 0.02696718542867904
5.095 0.03476908217457192 0.03185753968121441
5.1175 0.03581560447267762 0.03671636320534355
5.14 0.03700935438099151 0.04153888973387754
5.1625 0.03834894742118644 0.046320406910986156
5.185 0.03983283389001269 0.05105626306484856
5.2075 0.041459301993602704 0.05574187380821344
5.23 0.04322648128890938 0.060372728449430445
5.2525 0.04513234641920283 0.06494439619747844
5.275 0.047174721129554786 0.06945253214548397
5.2975 0.04935128254729326 0.0738928830183021
5.32 0.05165956571165542 0.078261292670887
5.3425 0.054096968336164064 0.08255370732530443
5.365 0.056660755786406614 0.08676618053552199
5.3875 0.05934806625574257 0.0908948778703027
5.41 0.06215591612066068 0.09493608130583331
5.4325 0.06508120545740848 0.09888619332097237
5.455 0.06812072370116473 0.1027417406893818
5.4775 0.07127115542897311 0.10649937796396491
5.5 0.07452908624752208 0.11015589065044029
5.5225 0.07789100876702282 0.11370819806810006
5.545 0.08135332864248834 0.11715335589699127
5.5675 0.08491237066393209 0.12048855841210926
5.59 0.08856438487752305 0.1237111404061814
5.6125 0.09230555271977847 0.12681857880393377
5.635 0.09613199314771892 0.12980849397166905
5.6575 0.10003976874814491 0.13267865072711116
5.68 0.1040248918100235 0.1354269590553816
5.7025 0.10808333034444084 0.13805147453793465
5.725 0.11221101403738976 0.14055039850205908
5.7475 0.11640384012144311 0.1429220778994189
5.77 0.12065767915303094 0.14516500492271067
5.7925 0.12496838068297657 0.1472778163702655
5.815 0.1293317788087337 0.14925929276891203
5.8375 0.13374369759763183 0.1511083572659695
5.86 0.1381999563714036 0.15282407430158695
5.8825 0.14269637484299924 0.15440564807313883
5.905 0.14722877809777346 0.1558524208035359
5.9275 0.15179300141187824 0.1571638708256362
5.95 0.15638489490159202 0.1583396104950645
5.9725 0.16100032799839425 0.1593793839437666
5.995 0.16563519374502622 0.16028306468686634
6.0175 0.17028541290917598 0.16105065309510302
6.04 0.17494693791165172 0.16168227374529454
6.0625 0.1796157565672516 0.16217817266097656
6.085 0.18428789563685166 0.16253871445530432
6.1075 0.18895942419021106 0.1627643793880016
6.13 0.19362645677962353 0.1628557603479619
6.1525 0.19828515642521904 0.16281355977272316
6.175 0.20293173741329423 0.16263858651586105
6.1975 0.2075624679096817 0.162331752672765
6.22 0.2121736723906984 0.16189407037509618
6.2425 0.2167617338947463 0.16132664856369594
6.265 0.22132309609804235 0.16063068974936678
6.2875 0.22585426521843965 0.15980748677035406
6.31 0.2303518117517518 0.15885841955517366
6.3325 0.23481237204507277 0.15778495189869157
6.355 0.2392326497124042 0.15658862825903652
6.3775 0.24360941689749271 0.15527107058248685
6.4 0.2479395153898052 0.15383397516284641
6.4225 0.2522198575989947 0.15227910954153523
6.445 0.25644742739405046 0.1506083094539865
6.4675 0.2606192808130059 0.14882347582759303
6.49 0.26473254664940926 0.14692657183588897
6.5125 0.2687844269218731 0.14491962001332315
6.535 0.27277219723284385 0.1428046994343779
6.5575 0.27669320702305633 0.14058394296050203
6.58 0.28054487972794273 0.1382595345578057
6.6025 0.2843247128423277 0.13583370668817984
6.625 0.2880302778996333 0.13330873777584085
6.6475 0.29165922037194214 0.1306869497513654
6.67 0.295209259496898 0.12797070567443125
6.6925 0.298678188037651 0.125162407436485
6.715 0.30206387198171347 0.12226449354404245
6.7375 0.3053642501845477 0.11927943698310228
6.76 0.308577333963715 0.11620974316474075
6.7825 0.31170120664896084 0.11305794795184149
6.805 0.31473402309380427 0.10982661576644259
6.8275 0.3176740091538659 0.10651833777706665
6.85 0.3205194611369069 0.10313573016512079
6.8725 0.32326874522974336 0.09968143246922878
6.895 0.32592029690647273 0.09615810600605634
6.9175 0.3284726203229402 0.09256843236623791
6.94 0.330924287701472 0.0889151119834497
6.9625 0.33327393871041155 0.08520086277493721
6.985 0.33552027984225474 0.08142841885123797
7.0075 0.33766208379430873 0.0776005292929951
7.03 0.33969818885554326 0.07371995699246758
7.0525 0.34162749830302275 0.06978947755725606
7.075 0.3434489798113014 0.06581187827361545
7.0975 0.3451616648777418 0.06178995712674529
7.12 0.34676464826679565 0.057726521875126724
7.1425 0.34825708747586726 0.05362438917614632
7.165 0.3496382022253508 0.049486383759955066
7.1875 0.3509072739752166 0.04531533764855511
7.21 0.35206364547026614 0.04111408941701722
7.2325 0.3531067203161635 0.03688548349366316
7.255 0.35403596258794456 0.03263236949598314
7.2775 0.354850896472803 0.028357601599066085
7.3 0.3555511059485458 0.02406403793320533
7.3225 0.3561362344990745 0.019754540007388632
7.345 0.35660598486804423 0.015431972155254714
7.3675 0.356960118851684 0.01109920100018813
7.39 0.3571984571315955 0.006759094936091392
7.4125 0.3573208791482032 0.0024145236204319576
7.435 0.3573273230153218 -0.0019316425238782853
7.4575 0.35721778547621674 -0.006276532801231083
7.48 0.3569923219012743 -0.010617276734146253
7.5025 0.35665104632734324 -0.014951004555637804
7.525 0.3561941315385656 -0.019274847706561626
7.5475 0.355621809188373 -0.023585939341425055
7.57 0.3549343699622064 -0.02788141484607176
7.5925 0.354132163780289 -0.03215841237068373
7.615 0.3532156000396707 -0.0364140733815308
7.6375 0.35218514789453814 -0.04064554323480607
7.66 0.35104133657372194 -0.044849971775994146
7.6825 0.34978475573403234 -0.04902451396803181
7.705 0.34841605584797986 -0.05316633055160652
7.7275 0.3469359486242669 -0.057272588740854447
7.75 0.34534520745917385 -0.0613404629576535
7.7725 0.3436446679169167 -0.06536713560769969
7.795 0.34183522823676116 -0.06934979790147633
7.8175 0.33991784986458917 -0.07328565072310944
7.84 0.337893558006377 -0.07717190555020403
7.8625 0.33576344220087573 -0.08100578542741266
7.885 0.33352865690862465 -0.08478452599663111
7.9075 0.331190422114214 -0.08850537658653934
7.93 0.3287500239385621 -0.09216560136405416
7.9525 0.32620881525772827 -0.09576248055021663
7.975 0.3235682163246625 -0.09929331170285982
7.9975 0.32082971539009497 -0.10275541106836061
8.02 0.3179948693184729 -0.10614611500445248
8.0425 0.3150653041949054 -0.10946278147614352
8.065 0.3120427159185959 -0.11270279162642921
8.0875 0.3089288707782938 -0.11586355142339622
8.11 0.3057256060050215 -0.11894249338512397
8.1325 0.302434830297178 -0.12193707838349654
8.155 0.2990585243129016 -0.12484479752791788
8.1775 0.29559874112446183 -0.12766317412966144
8.2 0.2920576066293692 -0.13038976574716
8.2225 0.2884373199124972 -0.13302216631265562
8.245 0.2847401535536728 -0.1355580083398582
8.2675 0.2809684538748287 -0.13799496521232513
8.29 0.2771246411207968 -0.14033075355195468
8.3125 0.2732112095677248 -0.14256313566623913
8.335 0.26923072755292843 -0.14468992207315434
8.3575 0.265185837420034 -0.14670897410183503
8.38 0.2610792553730552 -0.14861820656677827
8.4025 0.2569137712331644 -0.1504155905132234
8.425 0.2526922480917886 -0.15209915603063973
8.4475 0.24841762185371863 -0.15366699513099558
8.47 0.24409290066393385 -0.15511726468805123
8.4925 0.23972116421185774 -0.15644818943337913
8.515 0.23530556290695248 -0.15765806500448254
8.5375 0.23084931691950583 -0.15874526103985964
8.56 0.22635571508074737 -0.15970822431536202
8.5825 0.22182811363652943 -0.16054548191581075
8.605 0.21726993484901813 -0.16125564443532436
8.6275 0.212684665441069 -0.16183740919926226
8.65 0.20807585487831526 -0.1622895635003605
8.6725 0.20344711348414693 -0.16261098784100447
8.695 0.19880211038328333 -0.16280065917329
8.7175 0.1941445712699157 -0.16285765412792408
8.74 0.18947827599682565 -0.16278115222260547
8.7625 0.18480705598242642 -0.16257043904023138
8.785 0.1801347914330944 -0.1622249093666781
8.8075 0.17546540837873792 -0.1617440702776085
8.83 0.17080287552009388 -0.16112754416345565
8.8525 0.1661512008869641 -0.16037507168128956
8.875 0.1615144283071679 -0.15948651462205987
8.8975 0.15689663368657758 -0.15846185868139684
8.92 0.15230192110167096 -0.15730121612195402
8.9425 0.14773441870634496 -0.15600482831513096
8.965 0.1431982744559419 -0.15457306814976368
8.9875 0.13869765165185788 -0.1530064422954842
9.01 0.13423672431133027 -0.15130559330821303
9.0325 0.12981967236754466 -0.14947130156540922
9.055 0.125450676706186 -0.14750448701883112
9.0775 0.12113391404554308 -0.1454062107524976
9.1 0.1168735516679884 -0.14317767633402667
9.1225 0.11267374201164548 -0.1408202309475941
9.145 0.1085386171320093 -0.1383353662973401
9.1675 0.10447228304396639 -0.13572471927007657
9.19 0.10047881395580172 -0.13299007234715798
9.2125 0.0965622464073772 -0.13013335375550672
9.235 0.0927265733256708 -0.12715663734862725
9.2575 0.08897573801156566 -0.12406214220913148
9.28 0.08531362807255416 -0.12085223196499795
9.3025 0.08174406931677192 -0.11752941381269011
9.325 0.07827081962434823 -0.11409633724114165
9.3475 0.07489756281279814 -0.11055579245155833
9.37 0.07162790251358953 -0.1069107084690688
9.3925 0.06846535607758142 -0.10316415094324682
9.415 0.06541334852742708 -0.09931931963572893
9.4375 0.06247520657528244 -0.09537954559431006
9.46 0.05965415272453006 -0.09134828801405037
9.4825 0.056953299474268415 -0.08722913078722483
9.505 0.054375643645449 -0.08302577874519379
9.5275 0.05192406084749801 -0.07874205359658282
9.55 0.04960130010410024 -0.07438188956733827
9.5725 0.047409978656658414 -0.06994932874973014
9.595 0.04535257696361494 -0.06544851616841052
9.6175 0.04343143391329063 -0.060883694573132294
9.64 0.04164874226756243 -0.056259198968853785
9.6625 0.04000654435289408 -0.05157945089519689
9.685 0.03850672801467758 -0.04684895246846388
9.7075 0.03715102284991234 -0.04207228020047471
9.73 0.035940996732423125 -0.03725407860962049
9.7525 0.034878052643815716 -0.03239905364052098
9.775 0.03396342582229432 -0.027511965909608582
9.7975 0.03319818124034085 -0.022597623794866406
9.82 0.03258321142104392 -0.017660876388648994
9.8425 0.03211923460159949 -0.012706606333314108
9.865 0.031806793251166976 -0.007739722559865991
9.8875 0.03164625294894208 -0.002765152950424843
9.91 0.03163780162684526 0.00221216305438246
9.9325 0.03178144917983228 0.007187281881658514
9.955 0.032077027445368334 0.012155263264500005
9.9775 0.03252419055214828 0.017111177670643185
10.0 0.03312241563668161 0.022050113699860985
