!Created with skrf (http://scikit-rf.org).
# GHz S RI R 50.0 
!freq ReS11 ImS11
1.0 0.4702916976467512 0.0741162415550276
1.0225 0.4713278502376132 0.06730622352311054
1.045 0.4721966165960486 0.06101361844467852
1.0675 0.4730422152427318 0.05520127044819418
1.09 0.47399683878032356 0.04979920745458707
1.1125 0.4751730259397451 0.044707462419179986
1.135 0.47665667981704674 0.039800854466291676
1.1575 0.4785013157273202 0.034935563104087526
1.18 0.48072406473031676 0.02995712558353325
1.2025 0.48330382122528937 0.02470931196316997
1.225 0.4861817214505323 0.019043219016084495
1.2475 0.48926390602921144 0.012825896623359812
1.27 0.4924262939453906 0.005947885162237239
1.2925 0.4955209159993703 -0.0016708134186195663
1.315 0.4983832503673822 -0.010076613558456262
1.3375 0.5008399819640155 -0.019280147755493582
1.36 0.5027166637759131 -0.029255880763019503
1.3825 0.5038448713608226 -0.03994328801504192
1.405 0.5040685834320301 -0.05124927498482408
1.4275 0.5032496640176718 -0.06305150130477041
1.45 0.5012724425327881 -0.07520231237941073
1.4725 0.4980474726108645 -0.08753305556562176
1.495 0.4935145922165844 -0.09985864963537319
1.5175 0.4876454065923418 -0.11198236822113643
1.54 0.480445276846713 -0.12370087598703638
1.5625 0.47195482831320057 -0.13480960901066413
1.585 0.4622509040688859 -0.145108609493014
1.6075 0.45144679202664806 -0.15440890284371683
1.63 0.4396914630235119 -0.16253943831001513
1.6525 0.4271674893757333 -0.169354502235178
1.675 0.414087287998533 -0.17474136122094916
1.6975 0.40068736951928785 -0.17862771489721121
1.72 0.3872203915663712 -0.18098835918639353
1.7425 0.3739450179246172 -0.18185031595265
1.765 0.36111386662249917 -0.18129561571485392
1.7875 0.34896015879099107 -0.1794609673430931
1.81 0.3376840035622179 -0.17653373960091726
1.8325 0.3274395040657295 -0.17274401480767027
1.855 0.31832397679673047 -0.16835292001106414
1.8775 0.3103704919051944 -0.16363792590757237
1.9 0.3035446545051982 -0.15887623587598423
1.9225 0.2977460945331061 -0.1543276752794434
1.945 0.2928145957581287 -0.15021857059800758
1.9675 0.2885402769046306 -0.1467279626587967
1.99 0.28467683722672615 -0.1439771649665358
2.0125 0.2809566604942895 -0.14202323491351532
2.035 0.2771065529296759 -0.14085646778585503
2.0575 0.27286304331177064 -0.14040163693976834
2.08 0.26798643600893807 -0.14052244485131882
2.1025 0.2622731069933515 -0.14102853789293598
2.125 0.2555658029095037 -0.1416844573926009
2.1475 0.24776189752110347 -0.14222001210412052
2.17 0.23881965591185572 -0.14234171342458887
2.1925 0.22876255474933463 -0.14174506561020295
2.215 0.21768162471620192 -0.14012760737476082
2.2375 0.20573564972007236 -0.13720262836683486
2.26 0.193148916326342 -0.13271341718335794
2.2825 0.18020610101269996 -0.12644773511250024
2.305 0.16724385873690908 -0.1182519678906066
2.3275 0.154638775585225 -0.1080441231332081
2.35 0.14279159836154892 -0.09582457171944184
2.3725 0.1321080561281413 -0.08168325214240867
2.395 0.12297710660366558 -0.06580204741986373
2.4175 0.11574799482126093 -0.04845126896124967
2.44 0.1107079874776073 -0.029979665032105106
2.4625 0.10806291553216377 -0.010798076109901947
2.485 0.10792261365686398 0.008642319565744034
2.5075 0.11029294248150294 0.02787544682578543
2.53 0.1150753588775367 0.04644716908067838
2.5525 0.12207408707617562 0.06394100470504223
2.575 0.13101002029557238 0.08000038901056299
2.5975 0.14153973293585173 0.09434568182093445
2.62 0.15327754171427743 0.10678488546299374
2.6425 0.16581847111858947 0.11721786287269578
2.665 0.17876021734688885 0.12563456946589216
2.6875 0.1917226642186215 0.13210832335660505
2.71 0.20436405649933914 0.1367853917981403
2.7325 0.21639346272326915 0.13987218566575707
2.755 0.22757957717428778 0.1416211895468971
2.7775 0.23775617821258277 0.1423164917150476
2.8 0.24682467518294376 0.14225949209911834
2.8225 0.25475416385233596 0.14175511749713735
2.845 0.26157931129145445 0.1410987008368756
2.8675 0.26739625158504315 0.1405636036037689
2.89 0.2723565391048279 0.1403896778050515
2.9125 0.276659116682348 0.1407727606789716
2.935 0.2805402438839616 0.14185554294145403
2.9575 0.2842614153630392 0.14372030930976576
2.98 0.2880954832704211 0.14638416997060955
3.0025 0.29231146117400963 0.14979743389410674
3.025 0.2971587859579082 0.15384567895400514
3.0475 0.30285208442645967 0.15835583121337934
3.07 0.30955765964846294 0.16310619127093556
3.0925 0.3173829148452921 0.16783989178347128
3.115 0.3263697365056866 0.17228082067329656
3.1375 0.3364924756146863 0.17615069464315883
3.16 0.347660656809614 0.17918579871194756
3.1825 0.3597260052226796 0.1811519617416501
3.205 0.37249291419712205 0.18185660498318226
3.2275 0.38573116851558814 0.18115712100407771
3.25 0.3991896302132223 0.17896532413106944
3.2725 0.41260968181441193 0.1752481670937778
3.295 0.42573745901070403 0.17002526856361785
3.3175 0.43833422358393764 0.16336400383606745
3.34 0.45018455853761535 0.15537297314250376
3.3625 0.4611023559694249 0.1461946039279368
3.385 0.4709347811767878 0.13599750471758992
3.4075 0.4795645227561041 0.12496901123206447
3.43 0.48691068390032705 0.11330818628692843
3.4525 0.49292865071979436 0.10121937946964987
3.475 0.4976092091912639 0.08890633568687255
3.4975 0.5009770930138874 0.07656676970738258
3.52 0.5030890475880481 0.06438729692632215
3.5425 0.5040314050564064 0.05253862497175393
3.565 0.503917093916515 0.0411709601195335
3.5875 0.5028819642146356 0.030409658224174966
3.61 0.5010803038567633 0.020351240959819952
3.6325 0.4986794583971579 0.011059990640721912
3.655 0.49585354659639147 0.0025654140495866527
3.6775 0.4927763814186764 -0.0051390905841141015
3.7 0.48961384727608026 -0.012096035775275849
3.7225 0.4865161274625388 -0.0183818563388527
3.745 0.48361029336773365 -0.024103001115835743
3.7675 0.48099383103595456 -0.029390157212967
3.79 0.47872966895853936 -0.03439086633015385
3.8125 0.47684317476638144 -0.039260990711168224
3.835 0.47532141628459185 -0.04415563769129284
3.8575 0.47411476003926045 -0.04922022647749163
3.88 0.47314064545469 -0.05458236360832641
3.9025 0.47228916605007193 -0.06034508875947954
3.925 0.47142994305744607 -0.06658188237240964
3.9475 0.47041971033740376 -0.07333362470179955
3.97 0.46911004290087466 -0.080607498512862
3.9925 0.46735473993287696 -0.08837766494263213
4.015 0.46501649250046434 -0.09658743238334493
4.0375 0.46197259908748417 -0.10515258670065021
4.06 0.45811961522177075 -0.1139655512313718
4.0825 0.4533769205041251 -0.12290008288052148
4.105 0.447689249520838 -0.1318162692854536
4.1275 0.4410282622494715 -0.1405656551652484
4.15 0.4333932301629809 -0.14899638049023875
4.1725 0.4248108952936034 -0.15695825014132916
4.195 0.41533453156721717 -0.16430766993179763
4.2175 0.4050422113328681 -0.170912377086366
4.24 0.3940342646795844 -0.1766558680769363
4.2625 0.3824299223295985 -0.18144138983467023
4.285 0.370363159195379 -0.18519532104776265
4.3075 0.35797780587220285 -0.18786973936888401
4.33 0.34542206568217027 -0.18944395899817923
4.3525 0.3328426568895457 -0.18992484079204552
4.375 0.3203788806548152 -0.1893457295728127
4.3975 0.30815697988658786 -0.18776396077809462
4.42 0.29628518718383157 -0.18525699417831523
4.4425 0.2848498497296497 -0.18191736255352609
4.465 0.2739129600116306 -0.17784674954019797
4.4875 0.2635113168107949 -0.17314961345826319
4.51 0.25365740280058924 -0.16792683564274544
4.5325 0.24434191160479096 -0.16226988198525374
4.555 0.23553770928892817 -0.15625592321567147
4.5775 0.2272048923522094 -0.1499442700375388
4.6 0.21929652026612195 -0.14337435755798023
4.6225 0.2117645618482514 -0.13656537686234704
4.645 0.2045656000513343 -0.12951751691471047
4.6675 0.19766588203636734 -0.12221466048434768
4.69 0.19104537056946605 -0.11462828160956554
4.7125 0.18470053849826304 -0.10672222220398377
4.735 0.1786457418788211 -0.09845798099671178
4.7575 0.1729131036266239 -0.08980012647296512
4.78 0.16755093532293747 -0.08072144432450494
4.8025 0.16262081841373732 -0.07120744795257924
4.825 0.1581935557563172 -0.061259918268271346
4.8475 0.15434428703476924 -0.050899197871672554
4.87 0.1511471314373011 -0.04016504570009712
4.8925 0.14866977056068506 -0.029115960313471124
4.915 0.14696840535768693 -0.017826998442711343
4.9375 0.146083505862224 -0.006386241364072096
4.96 0.14603671770202734 0.005109817460933613
4.9825 0.1468291966693286 0.016561588593769296
5.005 0.1484415195845127 0.027871963278864247
5.0275 0.15083517942955216 0.0389516813535038
5.05 0.1539555315301981 0.04972404190798388
5.0725 0.15773593188936855 0.06012857235018592
5.095 0.16210271217758435 0.070123369938314
5.1175 0.16698057674711034 0.0796859492824449
5.14 0.1722979876490606 0.08881255536296041
5.1625 0.17799212080234078 0.09751602141840056
5.185 0.18401302325767122 0.10582235526032124
5.2075 0.19032666952098942 0.11376632103218724
5.23 0.19691669637332024 0.12138634470250502
5.2525 0.2037846847469587 0.12871911155408247
5.275 0.21094895049492382 0.1357942440992729
5.2975 0.21844190147715964 0.14262944985296547
5.32 0.226306114740296 0.1492265092409683
5.3425 0.23458938188304507 0.15556843219288222
5.365 0.24333905768412215 0.16161804498496601
5.3875 0.25259611856907965 0.16731817556653586
5.41 0.2623893832947963 0.17259348840985259
5.4325 0.27273035806277696 0.17735388637370023
5.455 0.28360913459636666 0.18149925990547155
5.4775 0.29499169055650615 0.18492523969713917
5.5 0.306818822523416 0.18752951512395347
5.5225 0.31900679578733104 0.18921823197992205
5.545 0.33144964127800985 0.18991198719556016
5.5675 0.3440228891624676 0.18955099458862945
5.59 0.3565884197405797 0.18809909451299744
5.6125 0.3690000479098652 0.18554640492363406
5.635 0.3811094418504259 0.18191054208143584
5.6575 0.3927720052843906 0.17723645711130945
5.68 0.4038524144675924 0.1715950256828789
5.7025 0.4142295809816332 0.16508058460533434
5.725 0.42380089397455784 0.15780763048588844
5.7475 0.4324856676433709 0.14990688704942554
5.77 0.44022777244739464 0.14152091846455514
5.7925 0.44699745753226466 0.1327994270929816
5.815 0.45279237744426515 0.12389433643372182
5.8375 0.45763782261711405 0.11495473315523304
5.86 0.4615861275160308 0.1061217330453923
5.8825 0.46471520203613903 0.097523348404959
5.905 0.46712611127569237 0.08926946915342521
5.9275 0.46893962674146883 0.08144712284444801
5.95 0.47029169764675127 0.07411624155502775
5.9725 0.4713278502376132 0.06730622352311058
5.995 0.47219661659604867 0.0610136184446785
6.0175 0.4730422152427319 0.055201270448194034
6.04 0.47399683878032356 0.04979920745458705
6.0625 0.47517302593974503 0.04470746241917994
6.085 0.47665667981704674 0.03980085446629183
6.1075 0.4785013157273202 0.03493556310408778
6.13 0.48072406473031676 0.029957125583533313
6.1525 0.48330382122528925 0.024709311963170177
6.175 0.48618172145053234 0.019043219016084252
6.1975 0.48926390602921144 0.01282589662335968
6.22 0.49242629394539056 0.005947885162237302
6.2425 0.49552091599937015 -0.0016708134186192575
6.265 0.49838325036738224 -0.010076613558456304
6.2875 0.5008399819640154 -0.019280147755493332
6.31 0.5027166637759131 -0.029255880763019937
6.3325 0.5038448713608226 -0.03994328801504187
6.355 0.50406858343203 -0.051249274984824705
6.3775 0.5032496640176718 -0.06305150130477054
6.4 0.5012724425327881 -0.07520231237941066
6.4225 0.4980474726108645 -0.0875330555656217
6.445 0.4935145922165846 -0.09985864963537248
6.4675 0.4876454065923416 -0.11198236822113665
6.49 0.48044527684671323 -0.12370087598703602
6.5125 0.47195482831320035 -0.13480960901066444
6.535 0.46225090406888614 -0.1451086094930138
6.5575 0.4514467920266477 -0.15440890284371722
6.58 0.43969146302351175 -0.1625394383100151
6.6025 0.42716748937573334 -0.16935450223517792
6.625 0.4140872879985331 -0.1747413612209491
6.6475 0.4006873695192877 -0.17862771489721127
6.67 0.3872203915663712 -0.18098835918639353
6.6925 0.37394501792461793 -0.18185031595265
6.715 0.36111386662249917 -0.1812956157148539
6.7375 0.34896015879099135 -0.1794609673430931
6.76 0.3376840035622175 -0.1765337396009171
6.7825 0.32743950406572914 -0.17274401480767027
6.805 0.31832397679673075 -0.16835292001106422
6.8275 0.3103704919051943 -0.16363792590757256
6.85 0.3035446545051983 -0.15887623587598423
6.8725 0.2977460945331062 -0.1543276752794434
6.895 0.2928145957581287 -0.15021857059800756
6.9175 0.2885402769046306 -0.14672796265879662
6.94 0.28467683722672615 -0.1439771649665358
6.9625 0.28095666049428963 -0.1420232349135154
6.985 0.277106552929676 -0.1408564677858551
7.0075 0.27286304331177086 -0.14040163693976832
7.03 0.2679864360089382 -0.14052244485131873
7.0525 0.26227310699335166 -0.14102853789293607
7.075 0.2555658029095037 -0.14168445739260083
7.0975 0.2477618975211035 -0.1422200121041206
7.12 0.23881965591185578 -0.142341713424589
7.1425 0.22876255474933418 -0.1417450656102027
7.165 0.21768162471620262 -0.14012760737476088
7.1875 0.20573564972007222 -0.13720262836683464
7.21 0.19314891632634237 -0.13271341718335825
7.2325 0.18020610101269977 -0.12644773511250004
7.255 0.16724385873690922 -0.11825196789060687
7.2775 0.15463877558522546 -0.10804412313320841
7.3 0.1427915983615485 -0.09582457171944138
7.3225 0.1321080561281414 -0.08168325214240885
7.345 0.12297710660366529 -0.06580204741986288
7.3675 0.11574799482126127 -0.04845126896125067
7.39 0.11070798747760732 -0.029979665032105328
7.4125 0.10806291553216384 -0.010798076109903037
7.435 0.10792261365686395 0.008642319565744093
7.4575 0.11029294248150297 0.02787544682578577
7.48 0.11507535887753678 0.04644716908067877
7.5025 0.12207408707617581 0.0639410047050428
7.525 0.13101002029557263 0.08000038901056351
7.5475 0.14153973293585156 0.09434568182093414
7.57 0.15327754171427652 0.10678488546299275
7.5925 0.16581847111858936 0.11721786287269567
7.615 0.17876021734688807 0.12563456946589177
7.6375 0.19172266421862164 0.13210832335660508
7.66 0.20436405649933925 0.13678539179814034
7.6825 0.21639346272326943 0.13987218566575713
7.705 0.2275795771742882 0.1416211895468971
7.7275 0.23775617821258305 0.1423164917150476
7.75 0.24682467518294354 0.1422594920991183
7.7725 0.2547541638523357 0.1417551174971373
7.795 0.26157931129145434 0.14109870083687565
7.8175 0.2673962515850435 0.14056360360376902
7.84 0.27235653910482766 0.1403896778050514
7.8625 0.2766591166823481 0.1407727606789717
7.885 0.28054024388396165 0.141855542941454
7.9075 0.28426141536303906 0.14372030930976581
7.93 0.2880954832704207 0.14638416997060938
7.9525 0.2923114611740095 0.14979743389410652
7.975 0.29715878595790846 0.15384567895400528
7.9975 0.30285208442645933 0.1583558312133794
8.02 0.3095576596484633 0.1631061912709356
8.0425 0.31738291484529185 0.1678398917834712
8.065 0.3263697365056871 0.17228082067329664
8.0875 0.33649247561468626 0.17615069464315902
8.11 0.3476606568096139 0.17918579871194745
8.1325 0.35972600522267884 0.18115196174165019
8.155 0.3724929141971215 0.18185660498318224
8.1775 0.38573116851558836 0.1811571210040776
8.2 0.3991896302132214 0.17896532413106966
8.2225 0.41260968181441177 0.17524816709377783
8.245 0.42573745901070353 0.17002526856361802
8.2675 0.43833422358393825 0.16336400383606708
8.29 0.45018455853761535 0.1553729731425038
8.3125 0.46110235596942467 0.14619460392793693
8.335 0.47093478117678783 0.13599750471758973
8.3575 0.47956452275610423 0.12496901123206428
8.38 0.486910683900327 0.11330818628692851
8.4025 0.4929286507197943 0.10121937946964986
8.425 0.49760920919126395 0.08890633568687228
8.4475 0.5009770930138873 0.07656676970738305
8.47 0.5030890475880481 0.06438729692632189
8.4925 0.5040314050564065 0.05253862497175376
8.515 0.5039170939165151 0.04117096011953397
8.5375 0.5028819642146357 0.03040965822417537
8.56 0.5010803038567634 0.02035124095982005
8.5825 0.4986794583971579 0.011059990640721992
8.605 0.49585354659639147 0.002565414049586729
8.6275 0.4927763814186764 -0.005139090584114273
8.65 0.48961384727608004 -0.012096035775275925
8.6725 0.48651612746253875 -0.018381856338852847
8.695 0.48361029336773365 -0.024103001115835878
8.7175 0.4809938310359546 -0.029390157212966707
8.74 0.4787296689585394 -0.034390866330153695
8.7625 0.4768431747663815 -0.039260990711168
8.785 0.4753214162845918 -0.044155637691292625
8.8075 0.47411476003926045 -0.049220226477491594
8.83 0.47314064545469003 -0.05458236360832634
8.8525 0.4722891660500717 -0.06034508875948016
8.875 0.47142994305744607 -0.0665818823724098
8.8975 0.4704197103374037 -0.0733336247017995
8.92 0.4691100429008747 -0.0806074985128617
8.9425 0.4673547399328769 -0.08837766494263231
8.965 0.46501649250046445 -0.09658743238334462
8.9875 0.46197259908748417 -0.10515258670065046
9.01 0.4581196152217704 -0.11396555123137221
9.0325 0.4533769205041252 -0.12290008288052143
9.055 0.4476892495208378 -0.13181626928545376
9.0775 0.4410282622494718 -0.14056565516524816
9.1 0.433393230162981 -0.14899638049023864
9.1225 0.42481089529360405 -0.15695825014132864
9.145 0.415334531567217 -0.1643076699317977
9.1675 0.40504221133286855 -0.17091237708636584
9.19 0.39403426467958413 -0.17665586807693648
9.2125 0.38242992232959794 -0.18144138983467037
9.235 0.3703631591953786 -0.1851953210477627
9.2575 0.35797780587220257 -0.18786973936888413
9.28 0.34542206568217065 -0.18944395899817923
9.3025 0.3328426568895458 -0.1899248407920455
9.325 0.320378880654816 -0.18934572957281282
9.3475 0.30815697988658797 -0.1877639607780946
9.37 0.2962851871838317 -0.18525699417831534
9.3925 0.2848498497296495 -0.18191736255352609
9.415 0.27391296001163074 -0.17784674954019802
9.4375 0.26351131681079465 -0.173149613458263
9.46 0.253657402800589 -0.16792683564274535
9.4825 0.2443419116047911 -0.16226988198525377
9.505 0.23553770928892825 -0.15625592321567153
9.5275 0.22720489235220892 -0.1499442700375385
9.55 0.219296520266122 -0.14337435755798025
9.5725 0.2117645618482512 -0.1365653768623469
9.595 0.2045656000513344 -0.1295175169147105
9.6175 0.19766588203636742 -0.12221466048434773
9.64 0.19104537056946613 -0.1146282816095656
9.6625 0.18470053849826343 -0.10672222220398435
9.685 0.17864574187882137 -0.09845798099671213
9.7075 0.17291310362662418 -0.08980012647296548
9.73 0.16755093532293716 -0.08072144432450443
9.7525 0.16262081841373752 -0.07120744795257965
9.775 0.15819355575631697 -0.06125991826827081
9.7975 0.15434428703476924 -0.050899197871672665
9.82 0.151147131437301 -0.04016504570009654
9.8425 0.14866977056068506 -0.02911596031347122
9.865 0.14696840535768696 -0.017826998442711798
9.8875 0.14608350586222396 -0.006386241364071811
9.91 0.14603671770202728 0.005109817460933155
9.9325 0.1468291966693286 0.01656158859376921
9.955 0.14844151958451265 0.027871963278863782
9.9775 0.1508351794295522 0.038951681353504033
10.0 0.15395553153019792 0.04972404190798345
