!Created with skrf (http://scikit-rf.org).
# GHz S RI R 50.0 
!freq ReS11 ImS11 ReS21 ImS21 ReS12 ImS12 ReS22 ImS22
500.0 0.0498081681735537 0.11561570341576821 -0.6127882359446173 0.20811687593188555 -0.6127882359446173 0.20811687593188555 0.04207144602636824 0.02472065573736457
500.625 0.04692980166983355 0.08839977703323293 -0.43586793751428254 0.48586350015328017 -0.43586793751428254 0.48586350015328017 0.054288226027434 -0.028599964555705085
501.25 0.026525882607116136 0.08172957943929868 0.14204745330244026 -0.6412733426534833 0.1420474533024402 -0.6412733426534833 0.020813369401489482 -0.07690663700115441
501.875 0.007346178158879946 0.09043793387119926 0.18698523654925928 0.6283992690836643 0.18698523654925928 0.6283992690836642 -0.02875829945914999 -0.07671806234791623
502.5 0.009664295746728141 0.10925745703227813 0.47253540002572036 0.4570682665448645 0.47253540002572036 0.4570682665448645 -0.05681784619484529 -0.017221288275926037
503.125 0.018152995954331785 0.12356050975283267 -0.6352038174083777 -0.17352027380465032 -0.6352038174083778 -0.17352027380465035 -0.028346247650212833 0.038787224287219556
503.75 0.03627225156379438 0.11928391044764959 0.639394048910202 -0.15439778112838248 0.639394048910202 -0.15439778112838248 0.029414917755931615 0.044945781870539214
504.375 0.0501239253986904 0.11018863160681418 -0.4860974168928296 0.4466689690440938 -0.4860974168928296 0.44666896904409376 0.06607679295899165 -0.0013291141427042054
505.0 0.04664778401319089 0.0941927998324904 0.21328386789999268 -0.6282753839173834 0.21328386789999265 -0.6282753839173836 0.0470975306524447 -0.05095836354555089
505.625 0.037798709882113896 0.07957112506072819 0.11643620238698717 0.6537137429947392 0.1164362023869871 0.6537137429947389 -0.003144892952830141 -0.06082720426431579
506.25 0.022936269790394426 0.08347928980664625 -0.418968267677763 -0.517324156797229 -0.41896826767776296 -0.5173241567972289 -0.04401716644527588 -0.017378144426125522
506.875 0.006823370283878229 0.09471141183718335 -0.6178493558967607 -0.2513958287829051 -0.6178493558967608 -0.25139582878290523 -0.026253365901161386 0.043659956258429104
507.5 0.01137869256735051 0.11104923828452468 0.6600602606922547 -0.07439447517643218 0.6600602606922545 -0.07439447517643222 0.02636204281882796 0.0591518317048711
508.125 0.029505248951346486 0.12314111251944546 0.5459433224565491 -0.381060275838451 0.545943322456549 -0.38106027583845087 0.07570763959340246 0.024076801772097558
508.75 0.0492375348596491 0.11487715479589033 -0.2991678769227704 0.5950793483326458 -0.2991678769227704 0.5950793483326458 0.07643382819451962 -0.03440010022925971
509.375 0.06028374874223179 0.09510738653171211 -0.021162566578293504 -0.6685553121202167 -0.02116256657829349 -0.6685553121202168 0.028012350779477176 -0.05977909836420571
510.0 0.050526482146111606 0.07833207028630516 -0.342036327739341 -0.5810874128242328 -0.3420363277393409 -0.5810874128242327 -0.024970752969113247 -0.03304315385821222
510.625 0.025079480920055047 0.06946594521836363 -0.5759747094938251 -0.3479652238928349 -0.5759747094938251 -0.347965223892835 -0.03334970778560201 0.024388210048977205
511.25 0.010639079049239622 0.0850309262806476 0.672095559567549 0.03011080035810306 0.6720955595675487 0.030110800358103006 0.01543121424228243 0.05756515373920963
511.875 0.01152443692538005 0.11227552336551161 -0.6063824361569073 0.2935824517197809 -0.6063824361569073 0.29358245171978087 0.07468190936939127 0.037463418392626215
512.5 0.031114635452760803 0.1223582688914272 0.3972652887739162 -0.5401875295995914 0.3972652887739162 -0.5401875295995914 0.09389938736991887 -0.008126967268687522
513.125 0.06234297900937877 0.11310600752297453 0.09693376859302003 -0.6657013457635742 0.09693376859302003 -0.6657013457635742 0.06095255570205538 -0.052195135332043174
513.75 0.07107128258348776 0.08530061759634505 0.2327291193552631 0.6374176613716479 0.23272911935526314 0.6374176613716479 -0.0031513937620224267 -0.0505880891846996
514.375 0.052140158050318255 0.06091102566413624 -0.5091438497477765 -0.45293517897115515 -0.5091438497477765 -0.45293517897115515 -0.03141430052057744 -0.0016566864763831214
515.0 0.02286282689763032 0.060491215201537024 0.6647458372482034 0.15566737848462975 0.6647458372482034 0.1556673784846298 0.0009256001782060594 0.04818949415212097
515.625 0.0031130613917922656 0.08118712507002854 0.6570660694790429 -0.17732621750723532 0.6570660694790431 -0.17732621750723543 0.06092997268085563 0.05486198288235305
516.25 0.011943056208033237 0.10846925498421403 -0.4948173779201871 0.4628163551486541 -0.4948173779201871 0.4628163551486541 0.09338409398289618 0.008721360442389005
516.875 0.03943829069561469 0.12196868980765682 -0.22229057317868625 0.6405112915453911 -0.22229057317868625 0.6405112915453909 0.07192761045058207 -0.04459063065565577
517.5 0.06244282281084023 0.10773034088160109 -0.0993344582609439 -0.6714317651596943 -0.09933445826094402 -0.6714317651596943 0.02126931099838348 -0.06417005819344637
518.125 0.06924767610905941 0.07718174126212099 -0.4055694105889907 -0.548097262726484 -0.4055694105889906 -0.5480972627264838 -0.02215391634568071 -0.024076719681219633
518.75 0.04966834301313938 0.05986134616454735 0.6188832052905829 0.2965872215250876 0.6188832052905829 0.2965872215250876 -0.017751436083615672 0.036080519464353214
519.375 0.019696026265990922 0.06353766007093581 -0.6854763973348845 0.028723946266797418 -0.6854763973348847 0.028723946266797445 0.03177853986146935 0.06458865979464543
520.0 0.009498287602088554 0.08658348016559203 0.5886904622777741 -0.34642990587374006 0.5886904622777741 -0.3464299058737401 0.08348785726036584 0.03574054234596773
520.625 0.02404055295496725 0.1111414419423966 -0.3594249369610388 0.5772340809726282 -0.3594249369610388 0.5772340809726281 0.09170098772453308 -0.021472262629937688
521.25 0.050937852980600204 0.11424623544718437 0.052245756661453494 -0.6778776949863625 0.05224575666145355 -0.6778776949863625 0.054363540168385946 -0.05703759129534117
521.875 0.07280766407965686 0.09352310202850542 -0.26926674643564136 -0.6272601818941508 -0.26926674643564136 -0.6272601818941509 -0.002673508702509028 -0.04163834227430072
522.5 0.06555630174999316 0.06693198104233128 0.5294215826904665 0.4356611025796766 0.5294215826904665 0.4356611025796766 -0.027995867952166 0.005976521624294413
523.125 0.04117146534680302 0.050780870117146756 -0.6731577800329185 -0.13717557421746965 -0.6731577800329184 -0.1371755742174696 0.006393751282867301 0.05422908441476698
523.75 0.01794409117515189 0.06104999363266386 0.6594587124795254 -0.19237880092175855 0.6594587124795253 -0.19237880092175844 0.06363708419951385 0.054647636752336776
524.375 0.009891168134384433 0.08827528763053694 0.4945839417776368 -0.47450371965090243 0.4945839417776368 -0.47450371965090243 0.09924967335061737 0.014449450754077447
525.0 0.027701863543743155 0.10844179697869033 0.22090876088103759 -0.6484899337855538 0.2209087608810377 -0.6484899337855538 0.08008847169597338 -0.03703513459297077
525.625 0.05733932401188757 0.10599818855123741 0.10239151205290073 0.6767019752884978 0.10239151205290066 0.6767019752884981 0.022801505434840705 -0.05479083843797193
526.25 0.07089432490985487 0.08801194456703249 -0.40124353570257815 -0.5565067523831766 -0.40124353570257804 -0.5565067523831765 -0.021162342972836954 -0.02263620062859669
526.875 0.06258094020744197 0.06280264144897495 0.6127861269125402 0.3107825627531804 0.61278612691254 0.31078256275318034 -0.017421086297874214 0.035310355349205416
527.5 0.04349913347759912 0.05282902865042423 -0.6884381369626823 0.007231500365977719 -0.6884381369626824 0.007231500365977691 0.03309035432026764 0.06922310369296855
528.125 0.025249269072704562 0.06385774645836773 0.6073332009340912 -0.3240413335700986 0.6073332009340912 -0.3240413335700988 0.08501945500973127 0.04647572835901746
528.75 0.023343528761902377 0.08242520981641477 -0.39056705311166684 0.5635051431010248 -0.39056705311166684 0.5635051431010247 0.09784697480045676 -0.004329419033283351
529.375 0.038594977061084834 0.09649122878008409 0.08968411319094197 -0.6793427284376984 0.089684113190942 -0.6793427284376985 0.06489406018866828 -0.04714947936990101
530.0 0.055555185286154926 0.09440588387022278 0.22840062114644186 0.6468328414429102 0.22840062114644188 0.6468328414429101 0.013298380519865309 -0.04359896511580714
530.625 0.06349680555051339 0.07599337314885907 -0.49638396314801486 -0.4720286867570294 -0.49638396314801486 -0.4720286867570294 -0.012061824190049038 -0.00046656111666366906
531.25 0.05682021218641939 0.059762412228035494 -0.6600716398901318 -0.19237877179746604 -0.6600716398901318 -0.1923787717974661 0.00329683924157486 0.050443850407027785
531.875 0.04065471776486043 0.05755193389800206 0.6769013388099598 -0.13008378506391627 0.67690133880996 -0.1300837850639163 0.05663955308170743 0.0677242764782956
532.5 0.028026116269041113 0.06565552426114539 -0.541864672192618 0.42431670244350883 -0.541864672192618 0.4243167024435088 0.0982998061500791 0.03373655599230769
533.125 0.030683114829761913 0.07949299309555025 0.2881836463232963 -0.6230011679397158 0.2881836463232963 -0.6230011679397157 0.09457617969395542 -0.01887463084219946
533.75 0.043028933269230504 0.08711631416857167 0.024483295630177954 0.6848406401244735 0.02448329563017796 0.6848406401244737 0.05222138437356682 -0.047394141329611034
534.375 0.05304957282947279 0.08113250211358505 -0.33230840293676794 -0.6006880103365947 -0.3323084029367679 -0.6006880103365946 0.003821453102757187 -0.028142770057597837
535.0 0.05488801237965993 0.07017731434585522 0.5687676089112388 0.38533122524904434 0.5687676089112387 0.3853312252490443 -0.004879873976089497 0.022509516688317563
535.625 0.04832329208657689 0.061588528851231256 0.6825239664338603 0.08915486130853566 0.6825239664338603 0.08915486130853566 0.025954943476654425 0.06476555827635694
536.25 0.038755154191858376 0.06041281406090123 -0.6490971653628661 0.2296946401968044 -0.6490971653628662 0.22969464019680444 0.0779899522955862 0.062355952054655245
536.875 0.034363822305761 0.06857418744521106 0.47360560322162 -0.49799062059749316 0.47360560322162 -0.49799062059749316 0.10750178116261594 0.01883160414933359
537.5 0.03572436470488968 0.07927910456082676 0.19942966708649493 -0.6583479830513342 0.19942966708649495 -0.6583479830513345 0.09348279273983294 -0.028541716911686013
538.125 0.04414127421766452 0.08135765042778936 0.11605768574362559 0.6765569369135835 0.11605768574362561 0.6765569369135837 0.04816064728406577 -0.04543094236077488
538.75 0.05199561750926614 0.0775473180662956 -0.4072464890241842 -0.5525536229665665 -0.40724648902418437 -0.5525536229665666 0.006506441339485448 -0.01731854358471722
539.375 0.05300496819778877 0.07110819930792528 -0.6139339078907132 -0.31042199953603505 -0.6139339078907132 -0.31042199953603505 0.006398564806660982 0.03433018607054895
540.0 0.049551089712356944 0.06568552735803569 0.6884183117990821 0.0021848489387363687 0.6884183117990821 0.002184848938736396 0.04505152209622212 0.06628236060575117
540.625 0.04655663727687757 0.06579310110051302 -0.6179535427760323 0.3064237438214641 -0.6179535427760323 0.3064237438214641 0.09795264525803814 0.05640153122341107
541.25 0.0481818867122676 0.06668948697345012 -0.4141570015109422 0.5508870565084837 -0.41415700151094237 0.5508870565084838 0.11763099629169588 0.007652274676606834
541.875 0.05112337651420221 0.06615279328575002 0.12273801583760108 -0.6785994793211669 0.12273801583760105 -0.6785994793211672 0.09391329664932345 -0.037439462777485694
542.5 0.05110831614582759 0.06536077094328498 -0.1942717461332644 -0.6640811466358254 -0.1942717461332643 -0.6640811466358253 0.0400662274952925 -0.04447750326304606
543.125 0.047820524214096535 0.06282464233322771 0.468497343790235 0.5075344411215554 0.4684973437902349 0.5075344411215553 0.009236571642679731 -0.006750183559243052
543.75 0.04593522693814445 0.061790971132944045 -0.6466271233237468 -0.24409020855000574 -0.6466271233237469 -0.24409020855000585 0.019951125878934557 0.04653912702784098
544.375 0.04612050484586777 0.06672251639712085 0.6866193477128232 -0.07177058493926382 0.6866193477128233 -0.07177058493926387 0.06896930355125391 0.06699229660826626
545.0 0.04824107187388561 0.06828190718537033 -0.5836602920996771 0.36882810679906863 -0.5836602920996771 0.36882810679906863 0.11612906278239116 0.04728580640979822
545.625 0.0530506377703855 0.06551248729171935 0.35865669907085596 -0.5897688799021467 0.358656699070856 -0.5897688799021467 0.1262267071444673 -0.004339248189110724
546.25 0.05811142851495094 0.06032486385582948 -0.05915617967446913 0.687321751806883 -0.05915617967446913 0.687321751806883 0.09666083998036987 -0.042025517976519
546.875 0.05354204913639808 0.05352910754509664 -0.2522784233901502 -0.6441364312943345 -0.2522784233901502 -0.6441364312943344 0.04683005041496438 -0.04403116389278919
547.5 0.04306084977687974 0.052114921546393536 -0.512006485296315 -0.4641274589318585 -0.5120064852963147 -0.46412745893185836 0.020368582459495015 -0.00044662529790588136
548.125 0.03666503402135063 0.059387777880097456 -0.6647638741886885 -0.1887282197050423 -0.6647638741886888 -0.1887282197050424 0.0370412695300969 0.04754910319736795
548.75 0.038765204286053304 0.06933706999819113 -0.6788739570364486 0.12599384517692197 -0.6788739570364485 0.1259938451769219 0.08633670666126822 0.06483971661033833
549.375 0.05032326753436027 0.07256776389217964 -0.5515908488502683 0.41113912049048323 -0.5515908488502684 0.4111391204904833 0.12826212583992647 0.03539539885782504
550.0 0.06368966706833765 0.06689625567248247 -0.31459590297372925 0.6134797212675626 -0.31459590297372925 0.6134797212675626 0.1362867258623934 -0.016493329269630104
550.625 0.06617977779368608 0.05224386353260713 -0.010821131392537174 0.6906621852675887 -0.010821131392537172 0.6906621852675886 0.10039367614973142 -0.05038461990085673
551.25 0.05564876832097343 0.037936652189955296 0.29431668653974646 0.6251313551759177 0.29431668653974646 0.6251313551759177 0.055280052128802624 -0.04599058928589045
551.875 0.03966963982610492 0.038062365386899416 -0.5410653832795297 -0.4284237752261734 -0.5410653832795295 -0.4284237752261733 0.032517808342226305 6.373802603397427e-05
552.5 0.028984560499743794 0.051863285269755366 0.6733114180010206 0.1444890109788995 0.6733114180010206 0.1444890109788995 0.055914848025761854 0.040653397734641224
553.125 0.03076269449840393 0.06673653585934299 -0.6659774462944256 0.1657148995344455 -0.6659774462944256 0.1657148995344455 0.10403972665181703 0.049242610813921756
553.75 0.04640687092208798 0.073961908694478 -0.5225288610849295 0.4393890062903688 -0.5225288610849294 0.4393890062903688 0.13983575283155392 0.01661152419031671
554.375 0.06475890404021328 0.06739922037832848 0.2781073908263976 -0.6211634467186836 0.27810739082639746 -0.6211634467186835 0.13949778973096635 -0.030573678277351083
555.0 0.06905255589058605 0.04843051618099783 0.02075605257555828 0.680004555350995 0.020756052575558237 0.6800045553509949 0.10287772748594438 -0.05848002144228156
555.625 0.05527412463607703 0.033312870144734844 -0.31585768543894654 -0.6011597301959256 -0.3158576854389466 -0.6011597301959255 0.06093925536830193 -0.04693211026755875
556.25 0.03321894280559402 0.03384694878822289 -0.5465011740949125 -0.40248685778502064 -0.5465011740949125 -0.40248685778502064 0.043293256443197856 -0.00541468554350847
556.875 0.021564354902245925 0.051018653753755305 -0.6635087726442939 -0.12460128160218198 -0.6635087726442939 -0.12460128160218195 0.06673917508332872 0.02899469637643638
557.5 0.028109936683376982 0.07224337538816836 -0.6506306489734578 0.17402187469381816 -0.6506306489734576 0.17402187469381802 0.10971832650902619 0.03643005518275351
558.125 0.04937810631952569 0.08364047774958294 -0.5105104690606134 0.4387046173425743 -0.5105104690606135 0.4387046173425743 0.1464468677989072 0.005200905620141568
558.75 0.07183396523276214 0.07397871664131017 -0.27389083319676705 0.6166487741846745 -0.27389083319676705 0.6166487741846745 0.14765273493233727 -0.03872462988596785
559.375 0.07960064564409085 0.04850006298340182 0.019236673948794483 0.6785553199311319 0.019236673948794372 0.6785553199311319 0.11244032922761167 -0.06917671206607752
560.0 0.06558393773799981 0.025824912596857097 0.31367806029707757 0.6051435738351034 0.3136780602970778 0.6051435738351036 0.07034935361031536 -0.06016138873162008
560.625 0.03709718218751079 0.02243570695915632 -0.5501700762169534 -0.40948845418651536 -0.5501700762169534 -0.4094884541865154 0.04949934968692492 -0.01869178189768043
561.25 0.015540112329520142 0.0435785998287505 0.6740851336878346 0.12582706697075038 0.6740851336878345 0.12582706697075033 0.0756245953261868 0.021073227495183863
561.875 0.019940531944689536 0.07422568629690782 -0.6608565901209021 0.17854752311320213 -0.6608565901209021 0.17854752311320213 0.12132214315014317 0.02860646930486652
562.5 0.04995983719886292 0.09072922761629945 0.5176191457441955 -0.4466192033056028 0.5176191457441954 -0.4466192033056027 0.15814243212093376 -0.005620754378999298
563.125 0.08446533702969375 0.07863682165707574 -0.2741609620241469 0.6256758402365965 -0.27416096202414686 0.6256758402365965 0.15680436065078668 -0.05327946622379302
563.75 0.09674505787005225 0.04478457579064731 -0.022624532961390782 -0.686607989273792 -0.02262453296139079 -0.686607989273792 0.11946544629432271 -0.08528186105913316
564.375 0.07891658971068782 0.010863267740772148 0.3187785475860812 0.6122689943927729 0.3187785475860813 0.6122689943927732 0.07485399263297185 -0.07668049672449487
565.0 0.040932160533073775 0.0007452259561698815 0.5548203322233711 0.4136578840664225 0.5548203322233709 0.41365788406642234 0.05479389586169788 -0.036465449761314384
565.625 0.008093440667346567 0.024725158535053124 0.6790071369472125 0.12772836342383612 0.6790071369472125 0.12772836342383612 0.08216374271715285 0.005580378297013286
566.25 0.006053492029311144 0.06626693967554652 0.6645161903520361 -0.17696055224216542 0.6645161903520361 -0.17696055224216548 0.12955023955420067 0.011394396161997142
566.875 0.03706801532486978 0.09521257742972315 0.5222192864254466 -0.4437567036674951 0.5222192864254465 -0.4437567036674951 0.16612437115058262 -0.024818765110665542
567.5 0.08154379536762676 0.09055820502743035 0.2823868409050159 -0.6230462406070687 0.2823868409050159 -0.6230462406070688 0.16252555837975557 -0.07183005534622637
568.125 0.10918049330630153 0.05284604463556609 -0.010698379023337447 -0.6872707233735222 -0.010698379023337392 -0.6872707233735222 0.12693874172650568 -0.10456836721865044
568.75 0.09746486437785215 0.006279414030765013 -0.3071924406383205 -0.6187615076441129 -0.30719244063832063 -0.618761507644113 0.08033202165065276 -0.09606109185966803
569.375 0.05277747010703314 -0.0175128654426448 -0.546888867050076 -0.42719268246851433 -0.5468888670500761 -0.4271926824685144 0.05655003141085417 -0.058551810387791614
570.0 0.004345135587230348 0.0014340765104829123 -0.6783365546823091 -0.14533036085578055 -0.6783365546823091 -0.14533036085578055 0.07965725387970671 -0.014936405143874482
570.625 -0.009969753606099974 0.05038461372806119 0.6712240225298807 -0.1602447271914448 0.6712240225298807 -0.16024472719144475 0.12276069173978424 -0.006006790514508947
571.25 0.017289217678903693 0.09367764123252709 -0.5349626240964214 0.4301699086092633 -0.5349626240964213 0.43016990860926324 0.16225365328294838 -0.03915745185396533
571.875 0.07008880838592318 0.10103784782713866 0.3005036303493956 -0.6149520122619988 0.30050363034939553 -0.6149520122619987 0.16218786339809743 -0.087204346676866
572.5 0.1100698522075702 0.06579409316759935 -0.012177696313507767 0.6860427869074917 -0.012177696313507796 0.6860427869074918 0.12951439250736244 -0.12277354638242524
573.125 0.1105950527061428 0.010491814809107327 -0.2831462599739421 -0.6289114012241969 -0.2831462599739421 -0.628911401224197 0.08307273382737528 -0.11767782263727225
