!Created with skrf (http://scikit-rf.org).
# GHz S RI R 50.0 
!freq ReS11 ImS11 ReS21 ImS21 ReS12 ImS12 ReS22 ImS22
500.0 0.04980816817355366 0.11561570341576799 -0.6127882359446171 0.20811687593188546 -0.6127882359446174 0.20811687593188558 0.04207144602636794 0.024720655737364733
500.625 0.04692980166983322 0.08839977703323314 -0.4358679375142826 0.4858635001532803 -0.4358679375142826 0.4858635001532803 0.05428822602743401 -0.028599964555705067
501.25 0.02652588260711626 0.08172957943929873 0.1420474533024402 -0.641273342653483 0.14204745330244017 -0.6412733426534831 0.02081336940148957 -0.07690663700115447
501.875 0.007346178158879557 0.09043793387119925 0.1869852365492594 0.6283992690836645 0.18698523654925925 0.6283992690836643 -0.028758299459149934 -0.0767180623479163
502.5 0.009664295746728196 0.1092574570322781 0.47253540002572036 0.4570682665448644 0.4725354000257204 0.4570682665448644 -0.056817846194845256 -0.017221288275925797
503.125 0.01815299595433178 0.12356050975283234 -0.6352038174083773 -0.1735202738046502 -0.6352038174083774 -0.17352027380465024 -0.028346247650212514 0.0387872242872193
503.75 0.03627225156379424 0.11928391044764958 0.6393940489102022 -0.1543977811283825 0.6393940489102022 -0.1543977811283825 0.029414917755931212 0.044945781870539124
504.375 0.05012392539869004 0.11018863160681414 -0.48609741689282926 0.4466689690440934 -0.48609741689282926 0.4466689690440934 0.06607679295899181 -0.001329114142703907
505.0 0.04664778401319087 0.09419279983249118 0.2132838678999928 -0.6282753839173838 0.21328386789999276 -0.6282753839173839 0.04709753065244461 -0.05095836354555097
505.625 0.03779870988211406 0.07957112506072814 0.116436202386987 0.6537137429947389 0.11643620238698706 0.6537137429947394 -0.0031448929528301653 -0.06082720426431587
506.25 0.02293626979039426 0.08347928980664635 -0.41896826767776296 -0.517324156797229 -0.4189682676777631 -0.5173241567972291 -0.04401716644527614 -0.01737814442612559
506.875 0.0068233702838784785 0.0947114118371834 -0.6178493558967607 -0.25139582878290523 -0.6178493558967609 -0.25139582878290523 -0.026253365901161292 0.043659956258428854
507.5 0.011378692567350426 0.11104923828452459 0.6600602606922542 -0.07439447517643216 0.6600602606922542 -0.07439447517643222 0.026362042818828205 0.05915183170487116
508.125 0.029505248951346555 0.12314111251944534 0.5459433224565492 -0.38106027583845103 0.5459433224565493 -0.38106027583845115 0.07570763959340254 0.024076801772097357
508.75 0.04923753485964891 0.11487715479589039 -0.2991678769227705 0.5950793483326459 -0.2991678769227705 0.5950793483326459 0.07643382819451974 -0.03440010022925958
509.375 0.06028374874223164 0.09510738653171194 -0.02116256657829353 -0.6685553121202167 -0.021162566578293542 -0.6685553121202167 0.02801235077947708 -0.059779098364205814
510.0 0.05052648214611172 0.07833207028630489 -0.3420363277393409 -0.5810874128242328 -0.3420363277393409 -0.5810874128242328 -0.024970752969113268 -0.03304315385821203
510.625 0.025079480920055214 0.06946594521836337 -0.5759747094938252 -0.347965223892835 -0.5759747094938252 -0.347965223892835 -0.03334970778560231 0.024388210048977337
511.25 0.010639079049239587 0.0850309262806472 0.6720955595675496 0.03011080035810301 0.6720955595675495 0.030110800358103124 0.015431214242282137 0.05756515373920984
511.875 0.011524436925379689 0.11227552336551172 -0.6063824361569071 0.2935824517197809 -0.6063824361569071 0.29358245171978076 0.0746819093693915 0.03746341839262625
512.5 0.03111463545276069 0.12235826889142704 0.3972652887739161 -0.5401875295995914 0.39726528877391615 -0.5401875295995913 0.09389938736991867 -0.008126967268687509
513.125 0.06234297900937888 0.11310600752297442 0.09693376859302 -0.6657013457635741 0.09693376859301997 -0.6657013457635742 0.06095255570205553 -0.05219513533204315
513.75 0.07107128258348765 0.08530061759634457 0.23272911935526305 0.6374176613716477 0.23272911935526308 0.6374176613716477 -0.0031513937620226 -0.05058808918469962
514.375 0.05214015805031838 0.06091102566413623 -0.5091438497477766 -0.4529351789711552 -0.5091438497477766 -0.4529351789711552 -0.03141430052057712 -0.001656686476383399
515.0 0.02286282689763032 0.06049121520153669 0.6647458372482035 0.1556673784846299 0.6647458372482036 0.15566737848462991 0.0009256001782059361 0.04818949415212122
515.625 0.0031130613917922934 0.0811871250700284 0.6570660694790428 -0.17732621750723532 0.6570660694790427 -0.17732621750723535 0.06092997268085578 0.05486198288235335
516.25 0.011943056208033362 0.10846925498421425 -0.494817377920187 0.462816355148654 -0.49481737792018704 0.462816355148654 0.09338409398289621 0.008721360442389175
516.875 0.03943829069561494 0.12196868980765638 -0.22229057317868622 0.6405112915453911 -0.2222905731786862 0.6405112915453909 0.07192761045058221 -0.044590630655655744
517.5 0.062442822810840286 0.10773034088160104 -0.09933445826094395 -0.6714317651596943 -0.099334458260944 -0.6714317651596943 0.021269310998383376 -0.06417005819344629
518.125 0.06924767610905924 0.07718174126212135 -0.40556941058899043 -0.5480972627264836 -0.4055694105889904 -0.5480972627264834 -0.022153916345680695 -0.024076719681219712
518.75 0.049668343013139354 0.05986134616454744 0.6188832052905818 0.2965872215250898 0.6188832052905817 0.2965872215250898 -0.017751436083616137 0.03608051946435292
519.375 0.019696026265991037 0.063537660070936 -0.685476397334885 0.028723946266797414 -0.685476397334885 0.02872394626679747 0.031778539861469224 0.06458865979464522
520.0 0.009498287602088679 0.08658348016559198 0.5886904622777742 -0.3464299058737402 0.5886904622777742 -0.3464299058737402 0.08348785726036563 0.03574054234596796
520.625 0.02404055295496761 0.11114144194239634 -0.35942493696103894 0.5772340809726282 -0.3594249369610389 0.5772340809726282 0.09170098772453311 -0.021472262629937653
521.25 0.05093785298060022 0.11424623544718437 0.052245756661453494 -0.6778776949863627 0.052245756661453494 -0.6778776949863627 0.05436354016838607 -0.05703759129534124
521.875 0.07280766407965697 0.09352310202850575 -0.26926674643564114 -0.6272601818941504 -0.2692667464356412 -0.6272601818941507 -0.002673508702508723 -0.0416383422743008
522.5 0.06555630174999345 0.06693198104233139 0.5294215826904666 0.43566110257967666 0.5294215826904666 0.43566110257967666 -0.027995867952165847 0.005976521624294635
523.125 0.041171465346802744 0.05078087011714686 -0.6731577800329183 -0.13717557421746962 -0.6731577800329184 -0.13717557421746968 0.006393751282867274 0.054229084414766995
523.75 0.017944091175152194 0.061049993632663946 0.6594587124795249 -0.19237880092175824 0.659458712479525 -0.1923788009217583 0.06363708419951386 0.054647636752336505
524.375 0.009891168134384641 0.08827528763053727 0.4945839417776367 -0.4745037196509023 0.4945839417776368 -0.4745037196509024 0.09924967335061766 0.014449450754077428
525.0 0.027701863543743432 0.10844179697869014 0.22090876088103772 -0.6484899337855539 0.22090876088103775 -0.6484899337855538 0.08008847169597337 -0.03703513459297073
525.625 0.05733932401188774 0.10599818855123719 0.10239151205290074 0.6767019752884984 0.10239151205290069 0.6767019752884985 0.02280150543484074 -0.05479083843797204
526.25 0.07089432490985487 0.08801194456703246 -0.40124353570257804 -0.5565067523831765 -0.40124353570257804 -0.5565067523831765 -0.021162342972836926 -0.022636200628596698
526.875 0.06258094020744195 0.06280264144897474 0.61278612691254 0.31078256275318034 0.61278612691254 0.31078256275318034 -0.01742108629787406 0.035310355349205486
527.5 0.04349913347759926 0.052829028650424145 -0.6884381369626822 0.0072315003659776935 -0.6884381369626822 0.007231500365977749 0.03309035432026747 0.06922310369296861
528.125 0.025249269072704847 0.06385774645836774 0.6073332009340909 -0.32404133357009873 0.607333200934091 -0.32404133357009873 0.08501945500973135 0.04647572835901747
528.75 0.023343528761902543 0.08242520981641471 -0.390567053111667 0.563505143101025 -0.3905670531116671 0.563505143101025 0.09784697480045676 -0.004329419033283443
529.375 0.038594977061084584 0.09649122878008415 0.08968411319094195 -0.679342728437698 0.08968411319094186 -0.6793427284376983 0.0648940601886686 -0.04714947936990091
530.0 0.05555518528615476 0.0944058838702232 0.22840062114644172 0.6468328414429099 0.22840062114644175 0.6468328414429101 0.013298380519865462 -0.04359896511580694
530.625 0.06349680555051351 0.07599337314885934 -0.49638396314801475 -0.47202868675702947 -0.4963839631480148 -0.4720286867570295 -0.012061824190049147 -0.00046656111666392233
531.25 0.0568202121864194 0.05976241222803555 -0.6600716398901314 -0.19237877179746599 -0.6600716398901315 -0.192378771797466 0.003296839241574801 0.050443850407027604
531.875 0.04065471776486043 0.05755193389800181 0.6769013388099601 -0.13008378506391644 0.6769013388099601 -0.13008378506391644 0.05663955308170733 0.06772427647829576
532.5 0.028026116269040863 0.06565552426114554 -0.5418646721926182 0.4243167024435089 -0.5418646721926181 0.42431670244350894 0.09829980615007902 0.03373655599230766
533.125 0.030683114829761823 0.07949299309555014 0.2881836463232964 -0.6230011679397159 0.28818364632329635 -0.6230011679397159 0.0945761796939554 -0.018874630842199754
533.75 0.0430289332692302 0.08711631416857163 0.024483295630177947 0.6848406401244729 0.02448329563017795 0.6848406401244732 0.05222138437356687 -0.04739414132961087
534.375 0.0530495728294729 0.0811325021135851 -0.33230840293676794 -0.6006880103365947 -0.33230840293676794 -0.6006880103365947 0.0038214531027572773 -0.02814277005759798
535.0 0.054888012379659706 0.07017731434585558 0.568767608911239 0.38533122524904434 0.5687676089112389 0.38533122524904434 -0.004879873976089556 0.02250951668831758
535.625 0.048323292086577124 0.06158852885123109 0.6825239664338603 0.08915486130853567 0.6825239664338604 0.08915486130853567 0.025954943476654446 0.06476555827635681
536.25 0.03875515419185882 0.06041281406090082 -0.6490971653628664 0.22969464019680444 -0.6490971653628662 0.22969464019680436 0.07798995229558614 0.06235595205465545
536.875 0.03436382230576103 0.06857418744521088 0.4736056032216237 -0.49799062059748994 0.4736056032216236 -0.49799062059748983 0.10750178116261638 0.018831604149334095
537.5 0.03572436470488957 0.07927910456082676 0.19942966708649507 -0.6583479830513346 0.19942966708649515 -0.6583479830513348 0.09348279273983305 -0.028541716911686173
538.125 0.044141274217664075 0.08135765042778953 0.11605768574362553 0.6765569369135833 0.11605768574362553 0.6765569369135832 0.0481606472840658 -0.04543094236077496
538.75 0.05199561750926602 0.07754731806629565 -0.40724648902418414 -0.5525536229665664 -0.40724648902418414 -0.5525536229665664 0.00650644133948533 -0.017318543584717256
539.375 0.05300496819778837 0.07110819930792539 -0.613933907890713 -0.310421999536035 -0.6139339078907131 -0.31042199953603516 0.0063985648066609176 0.03433018607054906
540.0 0.049551089712357346 0.06568552735803533 0.6884183117990818 0.0021848489387364125 0.6884183117990818 0.0021848489387364125 0.04505152209622233 0.06628236060575089
540.625 0.04655663727687761 0.06579310110051316 -0.6179535427760326 0.3064237438214643 -0.6179535427760328 0.30642374382146437 0.09795264525803832 0.056401531223410725
541.25 0.04818188671226767 0.06668948697345015 -0.4141570015109421 0.5508870565084835 -0.41415700151094215 0.5508870565084836 0.11763099629169571 0.007652274676606875
541.875 0.051123376514202304 0.06615279328575016 0.12273801583760106 -0.678599479321167 0.12273801583760104 -0.6785994793211669 0.09391329664932352 -0.0374394627774854
542.5 0.05110831614582753 0.06536077094328448 -0.19427174613326442 -0.6640811466358254 -0.1942717461332644 -0.6640811466358254 0.04006622749529248 -0.044477503263046
543.125 0.04782052421409616 0.06282464233322854 0.46849734379023533 0.5075344411215559 0.4684973437902353 0.5075344411215558 0.00923657164267952 -0.0067501835592430545
543.75 0.04593522693814406 0.06179097113294452 -0.6466271233237468 -0.24409020855000574 -0.6466271233237468 -0.24409020855000574 0.019951125878934793 0.04653912702784086
544.375 0.046120504845867605 0.06672251639712101 0.6866193477128231 -0.07177058493926382 0.6866193477128233 -0.07177058493926375 0.06896930355125394 0.06699229660826621
545.0 0.048241071873885974 0.06828190718536997 -0.5836602920996768 0.36882810679906847 -0.5836602920996768 0.3688281067990685 0.11612906278239114 0.04728580640979801
545.625 0.05305063777038549 0.06551248729171932 0.35865669907085596 -0.5897688799021467 0.358656699070856 -0.5897688799021468 0.1262267071444672 -0.0043392481891108454
546.25 0.05811142851495102 0.060324863855829594 -0.05915617967446923 0.6873217518068833 -0.05915617967446917 0.6873217518068833 0.09666083998036996 -0.0420255179765191
546.875 0.053542049136398095 0.05352910754509682 -0.2522784233901501 -0.6441364312943344 -0.2522784233901501 -0.6441364312943343 0.04683005041496444 -0.04403116389278913
547.5 0.04306084977687974 0.05211492154639361 -0.512006485296315 -0.46412745893185864 -0.512006485296315 -0.4641274589318585 0.020368582459494945 -0.0004466252979059681
548.125 0.03666503402135067 0.059387777880097 -0.6647638741886881 -0.18872821970504225 -0.6647638741886881 -0.18872821970504214 0.037041269530097 0.047549103197367944
548.75 0.03876520428605337 0.06933706999819114 -0.6788739570364484 0.12599384517692191 -0.6788739570364484 0.1259938451769219 0.08633670666126814 0.06483971661033827
549.375 0.050323267534360186 0.07256776389218009 -0.5515908488502684 0.4111391204904833 -0.5515908488502683 0.4111391204904831 0.12826212583992647 0.0353953988578251
550.0 0.06368966706833748 0.06689625567248238 -0.3145959029737293 0.6134797212675625 -0.3145959029737292 0.6134797212675623 0.13628672586239338 -0.016493329269630097
550.625 0.06617977779368572 0.05224386353260724 -0.01082113139253716 0.6906621852675886 -0.010821131392537245 0.6906621852675888 0.10039367614973141 -0.050384619900856804
551.25 0.05564876832097329 0.03793665218995561 0.29431668653974635 0.6251313551759176 0.29431668653974624 0.6251313551759176 0.055280052128802964 -0.045990589285890435
551.875 0.039669639826104955 0.03806236538689928 -0.5410653832795296 -0.4284237752261733 -0.5410653832795296 -0.42842377522617336 0.03251780834222633 6.373802603407488e-05
552.5 0.02898456049974371 0.05186328526975515 0.6733114180010205 0.1444890109788995 0.6733114180010206 0.14448901097889955 0.05591484802576184 0.040653397734641376
553.125 0.03076269449840359 0.06673653585934301 -0.6659774462944255 0.16571489953444557 -0.6659774462944255 0.16571489953444551 0.10403972665181696 0.04924261081392187
553.75 0.04640687092208819 0.07396190869447804 -0.5225288610849295 0.43938900629036864 -0.5225288610849295 0.43938900629036876 0.13983575283155417 0.01661152419031659
554.375 0.06475890404021342 0.06739922037832863 0.2781073908263976 -0.6211634467186837 0.2781073908263975 -0.6211634467186836 0.13949778973096627 -0.0305736782773511
555.0 0.06905255589058609 0.04843051618099802 0.02075605257555833 0.680004555350995 0.02075605257555828 0.6800045553509948 0.1028777274859444 -0.05848002144228159
555.625 0.05527412463607653 0.033312870144735024 -0.3158576854389466 -0.6011597301959255 -0.31585768543894654 -0.6011597301959256 0.060939255368302005 -0.046932110267558766
556.25 0.0332189428055949 0.03384694878822206 -0.5465011740949179 -0.4024868577850129 -0.546501174094918 -0.40248685778501303 0.04329325644319849 -0.005414685543507873
556.875 0.021564354902246174 0.05101865375375517 -0.6635087726442943 -0.12460128160218203 -0.6635087726442944 -0.12460128160218209 0.06673917508332855 0.02899469637643637
557.5 0.028109936683377024 0.07224337538816855 -0.6506306489734579 0.17402187469381816 -0.6506306489734579 0.1740218746938181 0.10971832650902599 0.03643005518275365
558.125 0.049378106319525744 0.0836404777495827 -0.5105104690606136 0.43870461734257443 -0.5105104690606135 0.4387046173425744 0.14644686779890737 0.005200905620141418
558.75 0.07183396523276186 0.07397871664131087 -0.27389083319676716 0.6166487741846747 -0.2738908331967671 0.6166487741846747 0.14765273493233722 -0.03872462988596793
559.375 0.07960064564409115 0.04850006298340141 0.019236673948794494 0.6785553199311317 0.019236673948794494 0.6785553199311317 0.11244032922761173 -0.06917671206607767
560.0 0.06558393773799999 0.02582491259685714 0.3136780602970779 0.6051435738351039 0.3136780602970778 0.6051435738351036 0.07034935361031522 -0.060161388731620136
560.625 0.037097182187510847 0.022435706959156344 -0.5501700762169534 -0.4094884541865155 -0.5501700762169534 -0.40948845418651547 0.04949934968692506 -0.018691781897680497
561.25 0.015540112329520128 0.043578599828750446 0.6740851336878346 0.12582706697075044 0.6740851336878346 0.12582706697075044 0.07562459532618683 0.021073227495183613
561.875 0.01994053194468924 0.07422568629690808 -0.660856590120902 0.1785475231132021 -0.660856590120902 0.17854752311320216 0.12132214315014295 0.028606469304866648
562.5 0.04995983719886285 0.09072922761629938 0.5176191457441954 -0.4466192033056026 0.5176191457441953 -0.4466192033056024 0.15814243212093387 -0.005620754378999313
563.125 0.08446533702969378 0.0786368216570755 -0.27416096202414686 0.6256758402365963 -0.27416096202414686 0.6256758402365962 0.1568043606507866 -0.0532794662237929
563.75 0.09674505787005233 0.044784575790647464 -0.022624532961390775 -0.6866079892737917 -0.02262453296139077 -0.6866079892737917 0.11946544629432271 -0.08528186105913313
564.375 0.0789165897106878 0.010863267740772342 0.3187785475860812 0.6122689943927729 0.3187785475860812 0.6122689943927729 0.07485399263297182 -0.07668049672449492
565.0 0.04093216053307411 0.0007452259561695276 0.5548203322233706 0.4136578840664223 0.5548203322233706 0.41365788406642223 0.05479389586169779 -0.0364654497613144
565.625 0.008093440667346422 0.024725158535053512 0.679007136947212 0.127728363423836 0.6790071369472122 0.12772836342383598 0.08216374271715318 0.005580378297012946
566.25 0.006053492029311089 0.06626693967554649 0.6645161903520358 -0.1769605522421654 0.6645161903520358 -0.17696055224216542 0.1295502395542005 0.011394396161997306
566.875 0.03706801532487006 0.09521257742972286 0.5222192864254463 -0.443756703667495 0.5222192864254466 -0.4437567036674951 0.16612437115058282 -0.0248187651106657
567.5 0.08154379536762663 0.09055820502743059 0.2823868409050158 -0.6230462406070685 0.2823868409050158 -0.6230462406070685 0.16252555837975544 -0.07183005534622633
568.125 0.10918049330630161 0.05284604463556599 -0.010698379023337506 -0.687270723373522 -0.010698379023337451 -0.687270723373522 0.12693874172650563 -0.10456836721865029
568.75 0.09746486437785196 0.006279414030765415 -0.30719244063832024 -0.6187615076441122 -0.3071924406383204 -0.6187615076441125 0.08033202165065292 -0.0960610918596681
569.375 0.05277747010703361 -0.017512865442645204 -0.5468888670500763 -0.4271926824685147 -0.5468888670500763 -0.4271926824685147 0.056550031410854115 -0.05855181038779143
570.0 0.0043451355872303615 0.0014340765104831343 -0.6783365546823091 -0.14533036085578047 -0.6783365546823094 -0.1453303608557805 0.0796572538797069 -0.014936405143874489
570.625 -0.009969753606099835 0.05038461372806114 0.6712240225298809 -0.16024472719144484 0.6712240225298807 -0.16024472719144472 0.1227606917397844 -0.006006790514508933
571.25 0.017289217678903526 0.09367764123252724 -0.5349626240964214 0.43016990860926335 -0.5349626240964213 0.43016990860926335 0.16225365328294838 -0.039157451853965276
571.875 0.07008880838592316 0.10103784782713872 0.30050363034939537 -0.6149520122619984 0.3005036303493954 -0.6149520122619986 0.1621878633980975 -0.08720434667686594
572.5 0.11006985220757057 0.06579409316759971 -0.01217769631350786 0.6860427869074921 -0.012177696313507834 0.6860427869074922 0.12951439250736235 -0.12277354638242524
573.125 0.11059505270614298 0.010491814809107226 -0.2831462599739421 -0.628911401224197 -0.2831462599739421 -0.628911401224197 0.08307273382737543 -0.11767782263727221
